;Version, 1, 0
;Vend0,;Vend1,;Vend2,;Vend3,;Vend4,;Vend5,;Vend6,;Vend7,;Vend8,;Vend9,;Vend10,;Vend11,;Vend12,;Vend13,;Vend14,;Vend15,;Vend16
;X, Y,;X, Y,;X, Y,;X, Y,;X, Y,;X, Y,;X, Y,;X, Y,;X, Y,;X, Y,;X, Y,;X, Y,;X, Y,;X, Y,;X, Y,;X, Y,;X, Y
;Re, Re,;Re, Re,;Re, Re,;Re, Re,;Re, Re,;Re, Re,;Re, Re,;Re, Re,;Re, Re,;Re, Re,;Re, Re,;Re, Re,;Re, Re,;Re, Re,;Re, Re,;Re, Re,;Re, Re
;Iteration, Y,;Iteration, Y,;Iteration, Y,;Iteration, Y,;Iteration, Y,;Iteration, Y,;Iteration, Y,;Iteration, Y,;Iteration, Y,;Iteration, Y,;Iteration, Y,;Iteration, Y,;Iteration, Y,;Iteration, Y,;Iteration, Y,;Iteration, Y,;Iteration, Y
;xunit, V,;xunit, V,;xunit, V,;xunit, V,;xunit, V,;xunit, V,;xunit, V,;xunit, V,;xunit, V,;xunit, V,;xunit, V,;xunit, V,;xunit, V,;xunit, V,;xunit, V,;xunit, V,;xunit, V
2,0.7999514599550337,2,0.7330752316234195,2,0.6834031506564516,2,0.6357520419418733,2,0.5901322678406924,2,0.5471824106744478,2,0.5059541819201402,2,0.4652290518382897,2,0.4251389144562971,2,0.3859663173893612,2,0.3477981508494449,2,0.3109990616636412,2,0.2754975134334154,2,0.2416580141378872,2,0.2097553922783523,2,0.180008949458155,2,0.1522780594019751
3,0.799944255955317,3,0.7330327245185851,3,0.6833869527056516,3,0.6357595671089865,3,0.5902555172096263,3,0.5474940591455998,3,0.5061755758936577,3,0.4655053664907133,3,0.4253975778793133,3,0.3862528035984071,3,0.3482366959991829,3,0.3115233432884452,3,0.2760886682667104,3,0.2423071267899567,3,0.2104755238634361,3,0.1806642746481381,3,0.1528888007205301
4,0.7999448659879694,4,0.7329941667245645,4,0.6833271523172928,4,0.6355879111393113,4,0.5902397538572156,4,0.5475294723499459,4,0.5063098942167753,4,0.4655787240504461,4,0.4254960858578051,4,0.3864201019177339,4,0.348427028979664,4,0.3118130907984565,4,0.2764176338634405,4,0.2426789416276129,4,0.2108020071962623,4,0.1809694402482534,4,0.1532873279760061
5,0.7999465608042703,5,0.7329975858039501,5,0.6832172359253388,5,0.6354936877843465,5,0.5900629348389166,5,0.5473711005592071,5,0.5061283818316893,5,0.465352277509864,5,0.425309382127835,5,0.3861409989130124,5,0.3479333109761487,5,0.311175142094772,5,0.275929367497721,5,0.2422924131813901,5,0.2104362858091139,5,0.1806709772516026,5,0.1531296044971515
6,0.799951920421764,6,0.7329683827140275,6,0.6832688912937304,6,0.6355724380111148,6,0.5901147596927164,6,0.5472806102017801,6,0.505889088691861,6,0.4652308629324504,6,0.4252260985234465,6,0.3860643430816782,6,0.348014564099306,6,0.3112211148005916,6,0.2758095739375019,6,0.2419715425189454,6,0.2101030427849483,6,0.1803658174759536,6,0.1527171501863118
7,0.7999457084198109,7,0.7331110617801608,7,0.6834390517116656,7,0.6357667026849597,7,0.5902101528176122,7,0.5473289640384642,7,0.5060599386652143,7,0.4653538986845912,7,0.4255114162010999,7,0.3863285019526665,7,0.3482580000658999,7,0.3113464579780014,7,0.2760626329404481,7,0.2423972405667037,7,0.2104684961635687,7,0.1806578572422142,7,0.1530032622052419
8,0.7999471789842761,8,0.7331440256206583,8,0.6833326949793828,8,0.6355782898264727,8,0.5901641648006841,8,0.5474566697609908,8,0.5060981854599005,8,0.4655427395644069,8,0.4255084397798989,8,0.3863552405797566,8,0.3483444042646094,8,0.3115514524920565,8,0.2760719709343392,8,0.2423269640821921,8,0.210487742537047,8,0.1807098394919474,8,0.1531755751842264
9,0.7999452824044964,9,0.7330306684901595,9,0.683274838981464,9,0.6355812255762421,9,0.590115607161941,9,0.5471732339308523,9,0.5060602061389743,9,0.4653831245712005,9,0.4255436035637109,9,0.3862585273425402,9,0.3482071778092682,9,0.3114743698405922,9,0.2759511339185335,9,0.2422827901307582,9,0.2104925045662844,9,0.180562509033578,9,0.1527593294690427
10,0.7999472147115411,10,0.7329290534007503,10,0.6832880573152583,10,0.6355814842436963,10,0.5899334509711207,10,0.5470146305227717,10,0.505845024273993,10,0.4651750421091772,10,0.4251887224134389,10,0.3861214666555283,10,0.3481162339182693,10,0.3113121687300456,10,0.2759366609380394,10,0.2421789490987648,10,0.2103342159086675,10,0.1804469146038053,10,0.1527374681696784
11,0.7999473909960851,11,0.7329253550846777,11,0.6830113447374039,11,0.6352773311581483,11,0.5898565721535957,11,0.5469804671004396,11,0.5057573186036285,11,0.4650186399425378,11,0.4250413163162264,11,0.3858271902253413,11,0.3478457559004005,11,0.3110254319685765,11,0.275539120521193,11,0.2417138017592918,11,0.2098873017874642,11,0.179996172322678,11,0.1524485098297014
12,0.799948338223206,12,0.7331702565200456,12,0.6833767501242253,12,0.6356596303001685,12,0.5901472123293917,12,0.5472704981122621,12,0.5059193907446439,12,0.4651407012358547,12,0.425157645594509,12,0.3860166952934721,12,0.3480197217703715,12,0.3110536191900581,12,0.2755292036161746,12,0.2419735448269795,12,0.2100780697682559,12,0.1803434343923434,12,0.1526902946129422
13,0.7999503544946771,13,0.7329985507422253,13,0.6832319946590838,13,0.635629512444285,13,0.5903836890681158,13,0.5475883118976194,13,0.5063282897463472,13,0.4656525611674157,13,0.4254848509580504,13,0.3864361741825005,13,0.3483470424577546,13,0.3116164380162229,13,0.2763484562042638,13,0.2426980851573306,13,0.2108235769280024,13,0.1811384297686822,13,0.1533968232321189
14,0.7999514931290576,14,0.7329679422895672,14,0.6832213114881812,14,0.635503034210704,14,0.5899302268450246,14,0.5471201459041806,14,0.505902676793767,14,0.4650780222554909,14,0.4250227425252833,14,0.3858662387166,14,0.3477548625671438,14,0.3110663907444257,14,0.2757179941321917,14,0.2420231140472156,14,0.2101172008281557,14,0.1802583296480144,14,0.1526481163971516
15,0.7999507413264361,15,0.7328567186974292,15,0.6830584280018501,15,0.6355256260238282,15,0.5900960629346278,15,0.5471371561088428,15,0.505804634361594,15,0.465121493952499,15,0.4251024645281755,15,0.3859703097383513,15,0.3480218538396418,15,0.3112273712967861,15,0.2758895516000171,15,0.2422314493875519,15,0.2104563616861414,15,0.1806974863415748,15,0.1529590935593838
16,0.7999522463957768,16,0.7328366253027068,16,0.6829202864021593,16,0.6352004388355315,16,0.5896765853455854,16,0.5468669823344635,16,0.5056249639093537,16,0.464924267582517,16,0.4249343659307372,16,0.3858201581864049,16,0.347765467848464,16,0.310933963335042,16,0.2756195337246319,16,0.2418256441593613,16,0.2100294951575861,16,0.180205591260786,16,0.1526262117796482
17,0.7999488906967648,17,0.7329772317768909,17,0.6832020013922813,17,0.6356215465008049,17,0.5901747291187444,17,0.5473669639153005,17,0.5061608606409791,17,0.4655513999168207,17,0.4255434181651912,17,0.3865564921820208,17,0.3485432475915748,17,0.3116383317729975,17,0.2761113914995432,17,0.242402320344136,17,0.210561274264052,17,0.1807180653470987,17,0.1531547053283956
18,0.7999488394519823,18,0.732868696854734,18,0.6830731588842031,18,0.6353969721424092,18,0.5899510160924717,18,0.5472564833806469,18,0.505967002478369,18,0.4652166395241404,18,0.4251449739753702,18,0.3859925287798011,18,0.3478563336045516,18,0.3110600929480171,18,0.2758849893387263,18,0.2421767388163159,18,0.2101671768391034,18,0.1804264231308045,18,0.1528218186784467
19,0.7999453715865814,19,0.7329053215302769,19,0.6831923155211623,19,0.6355234489523673,19,0.5901236177730521,19,0.5473474444751159,19,0.5060436424239256,19,0.465360427355255,19,0.4253345836481497,19,0.3860786838104665,19,0.3480602397180865,19,0.3111520687395795,19,0.2756859785277035,19,0.2419990232665514,19,0.2102057440557018,19,0.1804543559254473,19,0.1527727899612894
20,0.7999499955508813,20,0.7329935886763499,20,0.683412908652875,20,0.6355917766262078,20,0.5900712524915708,20,0.5472986912124509,20,0.5059856207444274,20,0.4651606783006992,20,0.425289419601819,20,0.3861801340260577,20,0.348023038214022,20,0.3111949255529529,20,0.2758138525457215,20,0.2421879695879114,20,0.2102929312203247,20,0.1805456917457261,20,0.152899398075003
21,0.7999486949430594,21,0.7329124779628513,21,0.6831004115167101,21,0.6352969829943395,21,0.5897929220102172,21,0.5470409795925507,21,0.5057308688303621,21,0.4649714325309974,21,0.4248679731108747,21,0.3857307891562772,21,0.3475438624958092,21,0.3107953481777891,21,0.2754704105778568,21,0.2417600244805095,21,0.2098972855074078,21,0.1800513671517045,21,0.1524143397342991
22,0.7999488001439158,22,0.7330491634218123,22,0.6832883927587162,22,0.6357300433533656,22,0.5902706750827137,22,0.5473891349316219,22,0.5061381251180945,22,0.4653646024232248,22,0.4253394370114089,22,0.3861514501945829,22,0.3480017559889339,22,0.3110911893062343,22,0.2756552359537392,22,0.2419870240515387,22,0.2100829249304143,22,0.180279078558767,22,0.1526002319876505
23,0.799946240089986,23,0.7329395865020638,23,0.6832054925230464,23,0.6354642908051641,23,0.5899570025501516,23,0.547069751269164,23,0.5058896334441713,23,0.4651209229550027,23,0.4251762945282825,23,0.3859047400467682,23,0.3478184658766552,23,0.3110365602453468,23,0.2756229957742402,23,0.2418547793631609,23,0.209935838306083,23,0.1802767155527168,23,0.1525028477691859
24,0.7999530639214,24,0.7330784688500125,24,0.6832997758724956,24,0.6356055705470549,24,0.5899816451360808,24,0.5470132967483216,24,0.5059294315841886,24,0.4651041790215595,24,0.4252437219467092,24,0.3861951134697141,24,0.3481106892018659,24,0.3111873277900145,24,0.2758428019352502,24,0.2420595226975092,24,0.2102084218856773,24,0.1801847739232249,24,0.1527788256752552
25,0.7999520660542249,25,0.7329826481420251,25,0.6832667199111608,25,0.6356132349745605,25,0.5900461419249518,25,0.5473358599324687,25,0.5061332866263403,25,0.465531210565901,25,0.4255451944099162,25,0.3863945920337279,25,0.3483609276252714,25,0.3114792443674522,25,0.2760860465514416,25,0.2422405542931367,25,0.2104195143253139,25,0.180646088675348,25,0.1529748363840851
26,0.7999475074808331,26,0.7330585111524662,26,0.6833099588982549,26,0.6356547252782673,26,0.5901618781492904,26,0.5473632969000569,26,0.5060702212580236,26,0.465227061060593,26,0.4251824628710777,26,0.3859722415824343,26,0.3478971055002468,26,0.3110446527008579,26,0.2758045552973539,26,0.2419669526515124,26,0.2102342352460692,26,0.1804399627890531,26,0.1527820644201932
