;Version, 1, 0
;Vend0,;Vend1,;Vend2,;Vend3,;Vend4,;Vend5,;Vend6,;Vend7,;Vend8
;X, Y,;X, Y,;X, Y,;X, Y,;X, Y,;X, Y,;X, Y,;X, Y,;X, Y
;Re, Re,;Re, Re,;Re, Re,;Re, Re,;Re, Re,;Re, Re,;Re, Re,;Re, Re,;Re, Re
;Iteration, Y,;Iteration, Y,;Iteration, Y,;Iteration, Y,;Iteration, Y,;Iteration, Y,;Iteration, Y,;Iteration, Y,;Iteration, Y
;xunit, V,;xunit, V,;xunit, V,;xunit, V,;xunit, V,;xunit, V,;xunit, V,;xunit, V,;xunit, V
1,0.7999785690361277,1,0.7013604834024405,1,0.6066308315101402,1,0.515935857138717,1,0.4297585990298116,1,0.348425580571269,1,0.2738481417009416,1,0.2083656165360032,1,0.1533725751817791
2,0.7999785605251551,2,0.7013430526915284,2,0.6065410465608093,2,0.5156964704274773,2,0.4295253085437329,2,0.3483781344702628,2,0.273870792870965,2,0.2084414003634001,2,0.153529135772163
3,0.7999815245145071,3,0.7011304082031506,3,0.6061642771511614,3,0.5157570602503062,3,0.4294291051917539,3,0.3482357050930562,3,0.2735118511124049,3,0.2079584738806534,3,0.1529921549492437
4,0.7999788054146419,4,0.7011691345677066,4,0.6062409912985876,4,0.5153581971255895,4,0.4290836189516442,4,0.3480338960234389,4,0.2735628503175948,4,0.2079723221019831,4,0.1531828718726751
5,0.7999785500005285,5,0.7009964405795208,5,0.6063709378639957,5,0.515997912318461,5,0.4296090134560062,5,0.3483325051081455,5,0.2739571019280297,5,0.2080664589702135,5,0.1529917862733275
6,0.7999791471204631,6,0.7011335157054382,6,0.6059395936307067,6,0.5152566450165629,6,0.4289160023752165,6,0.3476170169420947,6,0.2732667513337708,6,0.2077286452403361,6,0.1526609436553295
7,0.7999789512318423,7,0.7008884485400262,7,0.6061920201568346,7,0.5156159352243812,7,0.4292177805343688,7,0.3483089815539514,7,0.2738257336486002,7,0.2083288902963781,7,0.1532988724845798
8,0.7999788309031808,8,0.7009922917127825,8,0.6063143268128818,8,0.5157936958732084,8,0.4296762108035393,8,0.3487493837131628,8,0.2737488958213338,8,0.2081514921971098,8,0.1531267074468182
9,0.7999786679296541,9,0.7009531341812778,9,0.6062064881397815,9,0.5155417743807662,9,0.4292899477067179,9,0.3481011865850694,9,0.2735121195774273,9,0.2079344851385991,9,0.1528533621727182
10,0.7999792742893888,10,0.7012600181412594,10,0.606424609134174,10,0.515604059329119,10,0.4294101931144432,10,0.3480599079598029,10,0.2736337210663415,10,0.2082615543204518,10,0.1534176003170833
11,0.7999779563125374,11,0.7010712109499414,11,0.6060954049501213,11,0.5151622004108244,11,0.4286447502065989,11,0.3478532192414291,11,0.2734802669542889,11,0.2078731966028856,11,0.1529566234286172
12,0.7999792311043131,12,0.7010496060670953,12,0.6063030825553173,12,0.5158698220517117,12,0.4292404119544444,12,0.3479647046922618,12,0.2731514421356351,12,0.2078125050093303,12,0.152911350041368
13,0.799977431945982,13,0.7010920110525618,13,0.6059089307915332,13,0.5150285248484929,13,0.4283523393513701,13,0.3473985779664658,13,0.2729664396918063,13,0.2075874304058129,13,0.1526698132917541
14,0.7999797675151129,14,0.7011001158891454,14,0.6065157643895661,14,0.5158166353144235,14,0.4295230143000199,14,0.3482881061000098,14,0.2737349961127624,14,0.208223958607661,14,0.1533313459694015
15,0.7999780887697101,15,0.7009598990892452,15,0.60629137367636,15,0.5157383607062626,15,0.429590777377929,15,0.3486153536585246,15,0.2740546869630293,15,0.2083462635167588,15,0.1533977539873813
16,0.7999792314189023,16,0.7014231321252942,16,0.6062488376569158,16,0.5154247130678906,16,0.4291687451899719,16,0.3479935365280049,16,0.273283673436674,16,0.2074174618367106,16,0.1530041116695818
17,0.7999779694153101,17,0.7011642677943078,17,0.6062392449682814,17,0.5155593173262633,17,0.4290436360402228,17,0.3477205870062989,17,0.2733886613008732,17,0.2079972779658931,17,0.1528553129963051
18,0.7999769428423485,18,0.7010296956738571,18,0.6059028715562443,18,0.5150715335170526,18,0.4288190222316349,18,0.3479735640090156,18,0.273513817723623,18,0.2079377972938105,18,0.1530199472018308
19,0.7999781858605283,19,0.7012647989163424,19,0.6064846121360573,19,0.5157047361626764,19,0.4292450462210263,19,0.3481472458713767,19,0.2736876243845819,19,0.2083111696916755,19,0.153434768836555
20,0.7999780856002598,20,0.7012117786929735,20,0.6065872465992221,20,0.5154735141164269,20,0.4289856480401917,20,0.3478367411479717,20,0.2733940422656332,20,0.2078334869835548,20,0.1527817210478326
21,0.7999791485136063,21,0.7009768451259369,21,0.6058638691337104,21,0.5150145409170205,21,0.4287708311041177,21,0.347363817501254,21,0.2729141443964732,21,0.2074685529340317,21,0.1526044867408616
22,0.7999793358255608,22,0.7009503870851578,22,0.6059874396888417,22,0.5154586203569824,22,0.429190607805527,22,0.3479130067217827,22,0.2733436267967466,22,0.2079186109784051,22,0.1529683231820898
23,0.7999781306490098,23,0.7009146169300324,23,0.6061360662013722,23,0.5154503402411564,23,0.4292856366913709,23,0.3479527430472444,23,0.2733344127920312,23,0.2079251027286826,23,0.1527569231501852
24,0.7999771691568283,24,0.7011982276840009,24,0.6061790597138729,24,0.5153189854979143,24,0.4290116685123282,24,0.3479559658721184,24,0.2736696206387824,24,0.2083553994321822,24,0.1535909032145073
25,0.7999781584226193,25,0.7011670175535161,25,0.6063096797490424,25,0.5158686665270072,25,0.4298476099428593,25,0.3486657697811695,25,0.274008635273283,25,0.2085099399825646,25,0.1533530700986453
26,0.7999787219481238,26,0.7011803978319902,26,0.6063657810718408,26,0.5157929799898726,26,0.4293217799374882,26,0.3478897965555568,26,0.2733218495057717,26,0.2077811345262787,26,0.152781967317561
27,0.7999783822299061,27,0.7009113522180158,27,0.6059129892508042,27,0.5152657137539216,27,0.4289317352607289,27,0.3475117439672362,27,0.2729985574263808,27,0.2076045921329385,27,0.1524511180129558
28,0.7999774959550985,28,0.7011299938086542,28,0.6064212860883802,28,0.5158840527127355,28,0.4294545137357095,28,0.3482887114362889,28,0.2736736046814034,28,0.2080094883971427,28,0.1530063990736528
29,0.7999784794247812,29,0.7011045528788072,29,0.6063418846619451,29,0.5157934473686354,29,0.4292092335943017,29,0.3483223450249154,29,0.2736337581684508,29,0.2080128772150835,29,0.1530390660451552
30,0.7999764091303253,30,0.7009575519953666,30,0.6060255154793254,30,0.5154240636784865,30,0.4289632030462153,30,0.3479461811144972,30,0.2734613183723584,30,0.2080273886072612,30,0.153302138963867
31,0.7999784755789129,31,0.7010362421426235,31,0.606267978079805,31,0.5157767770017376,31,0.4293130061644197,31,0.3481179276401882,31,0.2735085818436832,31,0.20803414976854,31,0.1530716315381196
32,0.799980660229328,32,0.7010629556245078,32,0.605858509549248,32,0.5152217910126371,32,0.4288080263927159,32,0.3476529747950155,32,0.2733836002766442,32,0.2075529001075665,32,0.1528204319020495
33,0.7999776050321104,33,0.7014168252512831,33,0.6064455173563339,33,0.5156047248284656,33,0.4292632890370778,33,0.3479951985896221,33,0.2734651003470472,33,0.2078580434448605,33,0.1530377227119518
34,0.7999784828474582,34,0.7011423557990601,34,0.6060593367976511,34,0.5153167310051205,34,0.4290567576826357,34,0.3479041870436815,34,0.2732808766127243,34,0.2077873036058102,34,0.152937297596217
35,0.799980438351042,35,0.7007400547075218,35,0.6057747175164911,35,0.5149290348962826,35,0.4287929621181451,35,0.3476346292100098,35,0.2731552309285577,35,0.2076028829571789,35,0.1525613251482576
36,0.7999776666640528,36,0.7009062960483257,36,0.6061631855818631,36,0.5153918064054913,36,0.4291188928569964,36,0.3478890813553076,36,0.2733410524963748,36,0.2077114083735758,36,0.1530100898487469
37,0.7999786674277468,37,0.7012928508130836,37,0.6066474246015806,37,0.5160906659565618,37,0.4298141104469655,37,0.3485678064388514,37,0.2740285022178266,37,0.2085012339316025,37,0.1534835790741423
38,0.7999774253753036,38,0.7010405807903679,38,0.6063820647708248,38,0.5157839870427929,38,0.4294293984097577,38,0.3483353863025401,38,0.2737787495913752,38,0.2080382626781132,38,0.1532262577833905
39,0.7999777262191691,39,0.7011646297122337,39,0.6063938693036297,39,0.5154149702067148,39,0.4289409614672073,39,0.3477836516488987,39,0.2732490247213284,39,0.2078339706681282,39,0.152783447016024
40,0.7999790588255211,40,0.7011126548104923,40,0.6063380609978891,40,0.5154868858098746,40,0.4292176376245187,40,0.3480133760647356,40,0.2735060795096434,40,0.2080194392028055,40,0.1530162238107538
41,0.7999797056884836,41,0.7010123424735035,41,0.6061823871785955,41,0.5152634598636083,41,0.4289209098440587,41,0.3478983771126354,41,0.2735155380483766,41,0.2080840913123045,41,0.1530899649876549
42,0.7999790642031167,42,0.7011440802919845,42,0.6060513147500651,42,0.5153727111141801,42,0.4292009320988008,42,0.3480209713566348,42,0.2734653850776124,42,0.2080275420048003,42,0.1530310503495157
43,0.7999795423417819,43,0.7008975046208112,43,0.6059235509846037,43,0.5150400536089771,43,0.4289407932242774,43,0.3477132241099919,43,0.2730329255788632,43,0.2074228051304381,43,0.1527028350063711
44,0.7999779045192291,44,0.7009006432750331,44,0.6062830292034213,44,0.5153172834190093,44,0.4288513646313453,44,0.3473990507173644,44,0.272943385787212,44,0.2076643115165198,44,0.1529669457805926
45,0.7999767531069916,45,0.7012435872826015,45,0.6063039077653655,45,0.5156276168347742,45,0.4292040074208996,45,0.3479816476693005,45,0.2736315593881204,45,0.2081607238438501,45,0.153028928663295
46,0.7999780409990331,46,0.70113733319862,46,0.6062576678776344,46,0.5158859902897737,46,0.4295483625340294,46,0.3479823127168357,46,0.2736669418747425,46,0.2082873390804455,46,0.1534752891422463
47,0.7999776682784788,47,0.7011275492742216,47,0.6062611400376002,47,0.515514371246089,47,0.4293936466402868,47,0.34857544692304,47,0.2742752307913339,47,0.2086772330426213,47,0.1534360936974086
48,0.7999778088140964,48,0.7013514186875516,48,0.6066559191793818,48,0.5158159163412743,48,0.42969806723948,48,0.3483421550986842,48,0.2736045993399466,48,0.2079640871583278,48,0.1531447514891283
49,0.7999813247939844,49,0.7009568278591537,49,0.6059877639332693,49,0.5153885852475777,49,0.4290753358674254,49,0.3478742555497244,49,0.2734316467003134,49,0.2079267515484615,49,0.1529967380174519
50,0.799977917103587,50,0.7007522224046333,50,0.6057844755805607,50,0.5151974184499875,50,0.4287267229269458,50,0.3474406767122348,50,0.2732338133419681,50,0.2075045110386709,50,0.1525895962184888
