;Version, 1, 0
;Vend0,;Vend1,;Vend2,;Vend3,;Vend4,;Vend5,;Vend6,;Vend7,;Vend8,;Vend9,;Vend10,;Vend11,;Vend12,;Vend13,;Vend14,;Vend15,;Vend16,;Vend17,;Vend18,;Vend19,;Vend20,;Vend21,;Vend22,;Vend23,;Vend24,;Vend25,;Vend26,;Vend27,;Vend28,;Vend29,;Vend30,;Vend31,;Vend32
;X, Y,;X, Y,;X, Y,;X, Y,;X, Y,;X, Y,;X, Y,;X, Y,;X, Y,;X, Y,;X, Y,;X, Y,;X, Y,;X, Y,;X, Y,;X, Y,;X, Y,;X, Y,;X, Y,;X, Y,;X, Y,;X, Y,;X, Y,;X, Y,;X, Y,;X, Y,;X, Y,;X, Y,;X, Y,;X, Y,;X, Y,;X, Y,;X, Y
;Re, Re,;Re, Re,;Re, Re,;Re, Re,;Re, Re,;Re, Re,;Re, Re,;Re, Re,;Re, Re,;Re, Re,;Re, Re,;Re, Re,;Re, Re,;Re, Re,;Re, Re,;Re, Re,;Re, Re,;Re, Re,;Re, Re,;Re, Re,;Re, Re,;Re, Re,;Re, Re,;Re, Re,;Re, Re,;Re, Re,;Re, Re,;Re, Re,;Re, Re,;Re, Re,;Re, Re,;Re, Re,;Re, Re
;Iteration, Y,;Iteration, Y,;Iteration, Y,;Iteration, Y,;Iteration, Y,;Iteration, Y,;Iteration, Y,;Iteration, Y,;Iteration, Y,;Iteration, Y,;Iteration, Y,;Iteration, Y,;Iteration, Y,;Iteration, Y,;Iteration, Y,;Iteration, Y,;Iteration, Y,;Iteration, Y,;Iteration, Y,;Iteration, Y,;Iteration, Y,;Iteration, Y,;Iteration, Y,;Iteration, Y,;Iteration, Y,;Iteration, Y,;Iteration, Y,;Iteration, Y,;Iteration, Y,;Iteration, Y,;Iteration, Y,;Iteration, Y,;Iteration, Y
;xunit, V,;xunit, V,;xunit, V,;xunit, V,;xunit, V,;xunit, V,;xunit, V,;xunit, V,;xunit, V,;xunit, V,;xunit, V,;xunit, V,;xunit, V,;xunit, V,;xunit, V,;xunit, V,;xunit, V,;xunit, V,;xunit, V,;xunit, V,;xunit, V,;xunit, V,;xunit, V,;xunit, V,;xunit, V,;xunit, V,;xunit, V,;xunit, V,;xunit, V,;xunit, V,;xunit, V,;xunit, V,;xunit, V
1,0.799763407312688,1,0.7746168282155752,1,0.7497515642223318,1,0.7250413052525062,1,0.7006243080738087,1,0.6764125036577243,1,0.6524960917922802,1,0.6288461895661197,1,0.6055132452150743,1,0.5823453255521436,1,0.5594110523589355,1,0.5368196139167736,1,0.5145235420550784,1,0.4924572579409949,1,0.4707775983942317,1,0.4492365334035811,1,0.4280862132342826,1,0.4072458044429003,1,0.3867180639710869,1,0.3665241158014368,1,0.3466505397531026,1,0.3273403135699107,1,0.308448039920708,1,0.2900516134946529,1,0.2722011760483458,1,0.2549472136116093,1,0.2382473620628569,1,0.2222127637406457,1,0.2067943421584647,1,0.1920894870555529,1,0.1779932085128205,1,0.1647034068533399,1,0.1520061288222981
2,0.7997630037145083,2,0.7745867555815485,2,0.7496838187485937,2,0.7250567028890467,2,0.7005815837676713,2,0.6765593827764208,2,0.6526278584164246,2,0.6289701910352308,2,0.6056755068182482,2,0.5825807869941813,2,0.5597865384447483,2,0.5370263401896815,2,0.5147552586928414,2,0.4926461507384939,2,0.4708743350082535,2,0.4494272282225871,2,0.4282818948337686,2,0.407455967444502,2,0.3870253700060999,2,0.3669599128874111,2,0.3471367452741462,2,0.3277998161679336,2,0.3088636826561422,2,0.2904797363762427,2,0.2726814258653426,2,0.255369961479862,2,0.2386961576883436,2,0.2226575275111776,2,0.2071747406249111,2,0.1923829487638701,2,0.1782704406431415,2,0.1649935168326572,2,0.1523064145868818
3,0.7997627675056012,3,0.7744999713404068,3,0.7496226699078611,3,0.7249144560480784,3,0.7005366336030636,3,0.6763761502058417,3,0.6525564367511009,3,0.6288968851151262,3,0.60556394797003,3,0.5823825959868332,3,0.5596651844978094,3,0.5371650536577184,3,0.5147708040223389,3,0.4927761059208238,3,0.4710492714427631,3,0.4495940730541012,3,0.4284126767865293,3,0.4075695730944482,3,0.3870265249808933,3,0.3669223332010066,3,0.347130450064655,3,0.327864777160534,3,0.3088992044462942,3,0.2904951173449892,3,0.2725924233674423,3,0.2552830453655415,3,0.2386142846627601,3,0.2225517976853823,3,0.207074474080791,3,0.1924611945280957,3,0.1782778898114962,3,0.1650276529970207,3,0.1523363767425057
4,0.7997625682213406,4,0.7745616801518361,4,0.7497462335269411,4,0.7251875309168127,4,0.7008499899116533,4,0.6766908311545996,4,0.6527008295160638,4,0.6290912088338541,4,0.6057488579173874,4,0.5825947388510192,4,0.559816707476402,4,0.5372323345499375,4,0.5149250032761369,4,0.4928554421809792,4,0.4710905430255041,4,0.4495814702662812,4,0.42851409292112,4,0.4076904603112303,4,0.3871529027296,4,0.3670480079311694,4,0.3473404785611255,4,0.3279794595979435,4,0.30907289415378,4,0.2906679389018561,4,0.2729051078745837,4,0.2555618811147509,4,0.2388668167093576,4,0.2228403995341034,4,0.2074732862330633,4,0.1926559677324656,4,0.1785796536633311,4,0.1652843058732167,4,0.1525920996053841
5,0.7997629265216698,5,0.7745683115859032,5,0.7496829113328772,5,0.7250326732836476,5,0.7007360871124015,5,0.6765050954757308,5,0.6525953841419015,5,0.6289024239405004,5,0.6055664870350784,5,0.5823699196597237,5,0.5593972240594765,5,0.536785092478951,5,0.5145201695372447,5,0.4924459718939925,5,0.4707077685481564,5,0.4492054134846477,5,0.4279892471220975,5,0.4071820545729685,5,0.3866180843865265,5,0.3664584752533855,5,0.3466856729928974,5,0.3272793859680548,5,0.3085164445376614,5,0.2900414281784716,5,0.2720630302330133,5,0.2547143421208463,5,0.2380006281310303,5,0.2219627067007099,5,0.2064871099655183,5,0.1917274134468499,5,0.1776830769033916,5,0.164406258715285,5,0.1517636961552012
6,0.799762755454456,6,0.7746211401716839,6,0.749719488095565,6,0.7250372464603404,6,0.7007748716661912,6,0.6766739519956739,6,0.6528291146323709,6,0.6292590971280971,6,0.6058462818215434,6,0.5826921532213596,6,0.5598839094017185,6,0.5373636707141395,6,0.5151121550909235,6,0.492994870986363,6,0.4711386407575914,6,0.4494483370099184,6,0.428387506153879,6,0.4075118183033154,6,0.3870110396047479,6,0.366830013417502,6,0.3470751015566991,6,0.3277286563333639,6,0.308856006760731,6,0.2904631965869783,6,0.2726521217377425,6,0.2553565568433137,6,0.2385816975197751,6,0.222536853402638,6,0.20706151069644,6,0.1923801227216315,6,0.1783589554028964,6,0.1650385320405684,6,0.152383172188117
7,0.7997627215911771,7,0.7744760301893171,7,0.7496629180087286,7,0.725010751086347,7,0.7006348641948889,7,0.6765086692786217,7,0.6525895848065104,7,0.6288974830976264,7,0.605462548543715,7,0.5823426876994587,7,0.5594876493581873,7,0.5369244794600246,7,0.5145965562872693,7,0.4924829742136065,7,0.4707919355781279,7,0.4492551227882577,7,0.428087924534044,7,0.4072379133400915,7,0.386671814307249,7,0.3665317066021775,7,0.3467254019837373,7,0.3273408105318691,7,0.3084743875070284,7,0.2900441321095611,7,0.2722482852869212,7,0.2548931128676107,7,0.2382106418254724,7,0.2221568898019556,7,0.206615698082392,7,0.1918985651233869,7,0.1778884690110706,7,0.1644487290578164,7,0.1517881161305696
8,0.7997626395479305,8,0.7746391988547516,8,0.7497539940636279,8,0.7251055844665105,8,0.7007028928719429,8,0.6765853998488509,8,0.6527068510424642,8,0.6290165684957579,8,0.6056604178984764,8,0.5825610959119174,8,0.5597402812904284,8,0.5370428427191558,8,0.5146353242449538,8,0.4925890332591353,8,0.4708537688239748,8,0.4493205371837087,8,0.4282781444088293,8,0.4074105559794724,8,0.3868418118516395,8,0.3667004409238583,8,0.3468579237691097,8,0.3275315365989869,8,0.3086369526137479,8,0.2901401013953708,8,0.2723158789805891,8,0.2549712284109322,8,0.2383422201313397,8,0.2222724283867604,8,0.2067662513913866,8,0.1921292390244582,8,0.1781761630208567,8,0.1648317961291928,8,0.1521949830721934
9,0.7997627008255684,9,0.7746184059315636,9,0.7497688703295267,9,0.7252241012459224,9,0.7008031910399884,9,0.6766800550869998,9,0.6528522461099331,9,0.629208555505821,9,0.6057106113879867,9,0.582639606021372,9,0.5597059678971006,9,0.5371210913117487,9,0.514736463333189,9,0.4927372541704486,9,0.47091735816272,9,0.4495208655631473,9,0.4283416354179211,9,0.4074383568851337,9,0.3870122689360432,9,0.366882266224592,9,0.3471100886154949,9,0.3278270726506471,9,0.3089322251631561,9,0.2904244181711089,9,0.2725242139517645,9,0.2552552297408788,9,0.2386015342890188,9,0.2224693491888897,9,0.207018893255128,9,0.1923108669279971,9,0.1782716211609113,9,0.1648797927904586,9,0.1522600950270035
10,0.7997631970668428,10,0.7746401226753303,10,0.7497950750560334,10,0.7252098162983723,10,0.7007981658605663,10,0.6766901768408791,10,0.6527401259078947,10,0.6290328946151149,10,0.6056452343345065,10,0.5824277156260746,10,0.5595656528061356,10,0.5370249272073615,10,0.5146965718519105,10,0.4926561174569032,10,0.4708673255889646,10,0.4493784003587242,10,0.4281597890118591,10,0.4071637610019438,10,0.3866035639718371,10,0.3663909615813912,10,0.3466639853735196,10,0.3273187389349773,10,0.3084723581815386,10,0.2900869898912103,10,0.2721190614338388,10,0.2548345734264733,10,0.2382158181066837,10,0.2222437949808742,10,0.2068176557435998,10,0.1921172383505504,10,0.1781063945897149,10,0.1648502054713355,10,0.1522281913108382
11,0.799764107851715,11,0.7745796076028518,11,0.7497082239350313,11,0.7250193166329699,11,0.700539955038605,11,0.6763804552613132,11,0.6524618927407488,11,0.6287846062356264,11,0.6054217572938756,11,0.5823502428541051,11,0.5594332101642051,11,0.5367649208719423,11,0.5145809061507655,11,0.4925416360393373,11,0.4707842826687944,11,0.449305614077148,11,0.4281712806826632,11,0.4072720911717631,11,0.386771317475354,11,0.3665810481063941,11,0.3468360518548598,11,0.3274853261173414,11,0.3085549393006677,11,0.2901031604388631,11,0.2723033526990634,11,0.2550157235886242,11,0.2382637741699677,11,0.2222451835785142,11,0.2068054463290319,11,0.1919737715206509,11,0.1779615771018655,11,0.1646757109470812,11,0.152087661754204
12,0.7997632453357666,12,0.7745411770010916,12,0.749635663763902,12,0.7249229694045189,12,0.7004356906061308,12,0.6764212801681233,12,0.6525969902984298,12,0.6289145206824495,12,0.6056829392708257,12,0.5825727034358084,12,0.5597774271794306,12,0.5371637571147432,12,0.514845817898854,12,0.492729981070487,12,0.4710117612322151,12,0.4495471397576631,12,0.4283956981288787,12,0.4074849893667095,12,0.3869384873723745,12,0.3667820100162398,12,0.3469662596076512,12,0.3275719110793014,12,0.3086944894897634,12,0.2903334374837316,12,0.2725772754464079,12,0.255198337537797,12,0.2385295246384605,12,0.2224458002095638,12,0.2070014890355902,12,0.1923069093632743,12,0.1782583053129853,12,0.1650163721474632,12,0.1523138308621715
13,0.7997629816760707,13,0.7747004628652258,13,0.7498334878220098,13,0.7251944281844716,13,0.7007300387958069,13,0.6765433295892112,13,0.6525949561861557,13,0.6289051073712592,13,0.6055851630935051,13,0.5824823779324705,13,0.5596610433494723,13,0.5370179909616379,13,0.5147519753578129,13,0.4926563814228828,13,0.4709525679289513,13,0.4494649091862529,13,0.4282619319234666,13,0.4075227187802037,13,0.3869995007913994,13,0.3668811447074395,13,0.347117437598722,13,0.3276240278469757,13,0.308723168030878,13,0.2903249634426251,13,0.2724271831036736,13,0.2550345414177809,13,0.238252993946525,13,0.2220921286312682,13,0.2066973463800765,13,0.19188619172385,13,0.1779251560775504,13,0.1645481879255725,13,0.1519041150252944
14,0.7997625309274177,14,0.7745903216548512,14,0.7497176716346883,14,0.7250461798147633,14,0.7006465928228133,14,0.6765639196170212,14,0.6526642395819461,14,0.6290106920164391,14,0.6055531110211928,14,0.5822912026053841,14,0.5594584157867775,14,0.5367310697948787,14,0.5144366812447093,14,0.4923881673056623,14,0.4706088132372272,14,0.4491225513616312,14,0.4279237938921515,14,0.4069846845715067,14,0.3865457363956783,14,0.3663812618950354,14,0.3466597355781362,14,0.3271874259597891,14,0.3083576075229363,14,0.2899507711253008,14,0.2721170730871523,14,0.2548608949037544,14,0.238192512366159,14,0.2221332523407119,14,0.2067578369069057,14,0.192072823327543,14,0.1779629322621278,14,0.1645647667413337,14,0.1519038271860304
15,0.7997623697191838,15,0.7745978391996944,15,0.7497218348625213,15,0.7249892732343873,15,0.7006410907049548,15,0.6763689166265849,15,0.6523936001015832,15,0.6288948272818202,15,0.6055096188159,15,0.5824615068463942,15,0.5595958695483354,15,0.5371042125449879,15,0.5148788466311426,15,0.4928058185824677,15,0.4710269407874438,15,0.4495352700510727,15,0.4283751404998538,15,0.4075442942373741,15,0.386959305408079,15,0.366875659515539,15,0.3471490889662128,15,0.3278085719623761,15,0.3089778702995735,15,0.2904988829937996,15,0.2725592954522707,15,0.255249078228876,15,0.2385607905191106,15,0.2224968715307085,15,0.2071183657218675,15,0.1923844804917587,15,0.1783216037671658,15,0.1649814554663385,15,0.1522806405278091
16,0.7997624769738585,16,0.7746868016167232,16,0.7497154096220433,16,0.7249941677224432,16,0.7006122469599446,16,0.6763593617805301,16,0.6523838233577361,16,0.6287174722464975,16,0.6053459579508936,16,0.5822604084341557,16,0.5594055775989413,16,0.5367722734660381,16,0.5144041931931937,16,0.4923430341713133,16,0.4706698054885234,16,0.4491303740956808,16,0.4278709587506148,16,0.4070655820706613,16,0.3865499194598128,16,0.3664347242023469,16,0.3466565238250837,16,0.3274102473447508,16,0.3085436302495853,16,0.2900682559464631,16,0.2721988293605261,16,0.2548622368202781,16,0.2381314073694397,16,0.2221264950239811,16,0.2066685506428098,16,0.191968618590252,16,0.1779350983567486,16,0.1646222089062343,16,0.152037662108
17,0.7997626635970273,17,0.7745854949887804,17,0.7496377336817013,17,0.7250105376779209,17,0.7006391831878859,17,0.6764719470210655,17,0.6525705742521201,17,0.6289592842692839,17,0.6056202926556948,17,0.5825074466769347,17,0.5596771498830154,17,0.5369858427876596,17,0.5146814515269806,17,0.4925374286581596,17,0.4706829288682565,17,0.449289041996338,17,0.4281096250379259,17,0.4072093936851797,17,0.3867531758967592,17,0.3666158552729281,17,0.3468123524442071,17,0.3274179532532933,17,0.3084210963993239,17,0.2899592840106743,17,0.2720713749570369,17,0.2546957776091081,17,0.238039459998684,17,0.2220142473233147,17,0.2065819804583082,17,0.1918797498517761,17,0.1778275001087531,17,0.1645213748693695,17,0.1519086440919398
18,0.7997628546713321,18,0.7745305624353365,18,0.749623832540384,18,0.7249781111803022,18,0.7005097507470559,18,0.6763774878298155,18,0.6524474611071004,18,0.6288639358657377,18,0.605357884439649,18,0.582217207353942,18,0.5594410177649406,18,0.5368680257286127,18,0.5146035793247021,18,0.4925972527378015,18,0.4707948139568469,18,0.4493568737301948,18,0.4281595144976696,18,0.4072751449298367,18,0.3867304560737566,18,0.3666087485428135,18,0.3468647771739761,18,0.3274570662425046,18,0.3086239303045181,18,0.290152905666285,18,0.2724002627880297,18,0.2551050355099039,18,0.2383334324557253,18,0.2222802917203576,18,0.2069703621097347,18,0.192259395214974,18,0.1781446857786964,18,0.1647260636980716,18,0.1520467212080345
19,0.7997620883050783,19,0.7746610243844532,19,0.7496816369245551,19,0.7250002168821722,19,0.7005338946179983,19,0.6763589978178844,19,0.6525247509932418,19,0.6288730471034915,19,0.6054995700289881,19,0.5824104434779739,19,0.559540699024777,19,0.5370049287964518,19,0.5146112714500928,19,0.4926016683338518,19,0.4708028230878843,19,0.4493174750086165,19,0.4281196751452752,19,0.4072241425738052,19,0.3867725257951368,19,0.3666522773330571,19,0.3468636664065261,19,0.3275087004290836,19,0.3086178113614314,19,0.2903207508124229,19,0.2724720882646524,19,0.2550247415293594,19,0.2382625186941018,19,0.2221962255435453,19,0.2068320462065921,19,0.1920073945489778,19,0.177925525554647,19,0.1645254309513702,19,0.1518783078398979
20,0.7997629353067125,20,0.774597210313489,20,0.7496468822338497,20,0.725009386782643,20,0.7006480161315577,20,0.6765798379491905,20,0.6527042799707411,20,0.6290232136888242,20,0.6055997660815875,20,0.5824781436984376,20,0.5596936648870967,20,0.5369953437226643,20,0.5147251552977646,20,0.4926291507951709,20,0.4708499660669205,20,0.4494042100092178,20,0.4282536493057963,20,0.4073867316211461,20,0.3868838579044807,20,0.3667057097062462,20,0.3469317670296661,20,0.3275356532663647,20,0.3085918722271133,20,0.2901479018200018,20,0.2722857229259299,20,0.2549104270592443,20,0.238297066978247,20,0.2220631669847706,20,0.2066210273538738,20,0.1919471493355752,20,0.1779564391022539,20,0.1645291274630119,20,0.1518207711217003
21,0.799763339447748,21,0.7747092878606151,21,0.7498229997253302,21,0.7252054177300843,21,0.7008117999016399,21,0.6766790798009251,21,0.6527043636753455,21,0.6289553606133501,21,0.605532509137802,21,0.582392694280922,21,0.5595721954368686,21,0.5370378303631551,21,0.5146579768461639,21,0.4925751618435217,21,0.4708388810613691,21,0.4493558051556862,21,0.4282517179209075,21,0.407313641538985,21,0.3868038614451078,21,0.3666439301179609,21,0.3467311048212079,21,0.3273228790016993,21,0.3083824610228724,21,0.2899836484852208,21,0.2720911005028691,21,0.254858790896941,21,0.2381058421133264,21,0.2220381062634871,21,0.2066765983700158,21,0.1920006832312844,21,0.1779951658028392,21,0.1644924551510551,21,0.1518754946950527
22,0.7997625081924638,22,0.7746144086704752,22,0.7498045798090268,22,0.7251650049195055,22,0.7007214500294748,22,0.6766638946812804,22,0.6528048835238551,22,0.6291215314470889,22,0.6057004004551758,22,0.5825448734539305,22,0.5597243916684232,22,0.5371897650179474,22,0.5149005642494895,22,0.4928783109476231,22,0.4711731161157138,22,0.4497212576125932,22,0.4286484133420338,22,0.4077811332986943,22,0.38714840597741,22,0.3669092933031454,22,0.3471344395780643,22,0.3277278919189244,22,0.3087207117607668,22,0.2903421289764183,22,0.2724245078300857,22,0.2550817699090246,22,0.2382955809705758,22,0.2222229651584149,22,0.2068115930169606,22,0.1920367814052763,22,0.1779425206711335,22,0.1645538997407167,22,0.1517974429660119
23,0.7997619881532493,23,0.7746527758209866,23,0.7498555025562996,23,0.7251965817562693,23,0.7007062276375279,23,0.6764886353503186,23,0.6526483210245395,23,0.6289527387027687,23,0.6055368554804317,23,0.5823085605798061,23,0.559483028708986,23,0.5369055759077728,23,0.5145491150843289,23,0.4923825296124668,23,0.4706703489773598,23,0.4490986023683851,23,0.4279629284974976,23,0.4071686526861244,23,0.3866606471735992,23,0.3665336219234905,23,0.346773149245402,23,0.3274534465473031,23,0.3085491462728658,23,0.2902187468943614,23,0.2723459586942661,23,0.25501528596285,23,0.238348562640859,23,0.2222827843102021,23,0.206867189885522,23,0.1921137238531739,23,0.1780998389455664,23,0.164735442568666,23,0.1520748939758506
24,0.7997627468596212,24,0.7745929797537296,24,0.7495946966710838,24,0.7248996003293025,24,0.7005435444134263,24,0.6764623465963598,24,0.6526025801325064,24,0.6290111224053242,24,0.6056717252786719,24,0.5825760307992212,24,0.5597438770928354,24,0.5371883459547652,24,0.5149101602671571,24,0.4927862311260372,24,0.4709217453051401,24,0.4494824382872921,24,0.4282847467985881,24,0.4074629181990391,24,0.3869799772683807,24,0.3669020434141854,24,0.3471454249358573,24,0.3277637731040259,24,0.3089291283867246,24,0.2905302696650217,24,0.2726541088682282,24,0.2553078004785261,24,0.2386915324728031,24,0.2226452586664198,24,0.2072678102957749,24,0.1926132144296805,24,0.1786760357992166,24,0.1652873490933957,24,0.1526077309808686
25,0.7997624794971929,25,0.7745258168025987,25,0.7496683232709203,25,0.7249620908628598,25,0.7005555985113234,25,0.6763730218246432,25,0.6523499497438974,25,0.6286936266707871,25,0.60537900940218,25,0.5822431084192075,25,0.5594795759771718,25,0.5369679521601338,25,0.5146841424400319,25,0.4926838641675242,25,0.47081299247517,25,0.4494118173137025,25,0.4282753795442992,25,0.4074056386362369,25,0.3868276024739367,25,0.3667393824406947,25,0.3469274090794117,25,0.3275196572650091,25,0.30855000993706,25,0.2901716992987007,25,0.2722986532156134,25,0.2550119823997298,25,0.2382444935695539,25,0.222125926464216,25,0.2066880580006014,25,0.1919771997886942,25,0.1779616718320318,25,0.1645857470906106,25,0.1519631657593529
