;Version, 1, 0
;Vend0,;Vend1
;X, Y,;X, Y
;Re, Re,;Re, Re
;Iteration, Y,;Iteration, Y
;xunit, V,;xunit, V
1,0.7998286840778475,1,0.1483848736882404
2,0.799821929074033,2,0.1480629649520074
3,0.7998273400471692,3,0.1486891914729875
4,0.7998206994202632,4,0.14797092019569
5,0.7998233874107895,5,0.1485598142299232
6,0.7998201169525955,6,0.1482712234561661
7,0.7998251325445493,7,0.1481725477882319
8,0.7998203391981054,8,0.1481179537713349
9,0.7998221882878153,9,0.1484779435914048
10,0.799822589679245,10,0.1481481490270346
11,0.799829415425914,11,0.1480030483532725
12,0.7998204992903287,12,0.1483514363711272
13,0.7998206405644676,13,0.1479043591914243
14,0.7998305509187221,14,0.1477425924710531
15,0.7998263686633154,15,0.1484949178096912
16,0.7998256253222285,16,0.1482815068278423
17,0.7998243191894218,17,0.1483279793855269
18,0.7998261502512197,18,0.1480675547090312
19,0.7998227116566152,19,0.1483383662645184
20,0.7998242325338677,20,0.1481670594123969
21,0.7998246654206599,21,0.1482771721474379
22,0.7998239142669371,22,0.1483225778081317
23,0.7998247218458991,23,0.1484469035344336
24,0.7998296051359824,24,0.1484579703409186
25,0.7998246519629599,25,0.1479889863091567
26,0.7998224107570541,26,0.1482929454668596
27,0.7998294144438851,27,0.1483787185830172
28,0.7998231165944505,28,0.1483979921381731
29,0.7998278041097551,29,0.1481392701017197
30,0.7998198635141757,30,0.1480738211519911
31,0.7998259990983189,31,0.1482412077428086
32,0.7998206193792151,32,0.1481470567793853
33,0.7998236446026313,33,0.1480848152833391
34,0.7998238071209034,34,0.1479481985633849
35,0.7998241290768421,35,0.1482671616869241
36,0.7998250093879642,36,0.1487844747554133
37,0.7998210137663785,37,0.1478208385138346
38,0.7998199740133062,38,0.1481419992032375
39,0.7998249365908375,39,0.1481456037508738
40,0.7998262733566841,40,0.1479235643352148
41,0.7998259985461658,41,0.1479558430384488
42,0.7998271081206872,42,0.1483715729444333
43,0.7998307561353698,43,0.1485576654431937
44,0.7998268343780432,44,0.1485923867979089
45,0.7998230035561507,45,0.1482830077802556
46,0.7998250582297377,46,0.1480660598476176
47,0.7998232003821238,47,0.1481769624305084
48,0.7998247332046415,48,0.1483296145114504
49,0.7998210265463572,49,0.1480958005563962
50,0.7998250276272088,50,0.148336382435666
