;Version, 1, 0
;Vend0,;Vend1,;Vend2
;X, Y,;X, Y,;X, Y
;Re, Re,;Re, Re,;Re, Re
;Iteration, Y,;Iteration, Y,;Iteration, Y
;xunit, V,;xunit, V,;xunit, V
2,0.7999103526289011,2,0.4296742019255612,2,0.1522614109884648
3,0.7999107913573186,3,0.4297844476407502,3,0.1523030687031862
4,0.7999102726748712,4,0.4298978976713819,4,0.1523437839890563
5,0.7999140397079439,5,0.4300634087613057,5,0.1524716220005072
6,0.7999091299185317,6,0.4303717140710948,6,0.1530044241290038
7,0.7999141570868192,7,0.4298477256508999,7,0.1522592055505995
8,0.7999141029330702,8,0.4301590818438086,8,0.1523159152453074
9,0.7999104206467276,9,0.4299400746810886,9,0.1523088268051195
10,0.7999147846693651,10,0.4301757851843364,10,0.1524094398948328
11,0.7999110394939276,11,0.4303571435553122,11,0.1523766045929753
12,0.7999112317361096,12,0.4301505890513621,12,0.1520943662013246
13,0.7999078281361032,13,0.4301045463785644,13,0.1524780537854124
14,0.7999139049261252,14,0.4298622996707656,14,0.1521417233472706
15,0.7999128523597191,15,0.4298107936414706,15,0.1524974568886243
16,0.7999141924312713,16,0.42989397415779,16,0.1528582625853917
17,0.7999097608998946,17,0.4301856180059822,17,0.1524741766036324
18,0.7999115133455031,18,0.4300569245468138,18,0.1526689512160678
19,0.799911980941396,19,0.4303939133030791,19,0.152504034156666
20,0.7999103521661043,20,0.4292132088824273,20,0.1517980252506752
21,0.7999150358869793,21,0.4299092590108837,21,0.1522129674354456
22,0.7999137605815247,22,0.429977050284954,22,0.1523005672387222
23,0.7999123558336949,23,0.4301085670382962,23,0.1521652056507978
24,0.7999127139908901,24,0.4299230875614887,24,0.1523327870846742
25,0.7999158241198624,25,0.4295539435836906,25,0.151917038252693
26,0.7999147293833669,26,0.4300605917804328,26,0.1527972998215816
