;Version, 1, 0
;Vend0,;Vend1,;Vend2,;Vend3,;Vend4,;Vend5,;Vend6,;Vend7,;Vend8
;X, Y,;X, Y,;X, Y,;X, Y,;X, Y,;X, Y,;X, Y,;X, Y,;X, Y
;Re, Re,;Re, Re,;Re, Re,;Re, Re,;Re, Re,;Re, Re,;Re, Re,;Re, Re,;Re, Re
;Iteration, Y,;Iteration, Y,;Iteration, Y,;Iteration, Y,;Iteration, Y,;Iteration, Y,;Iteration, Y,;Iteration, Y,;Iteration, Y
;xunit, V,;xunit, V,;xunit, V,;xunit, V,;xunit, V,;xunit, V,;xunit, V,;xunit, V,;xunit, V
1,0.7999768188294696,1,0.701088761599852,1,0.6063394662615151,1,0.515467204658883,1,0.4290157042286664,1,0.3478615835898812,1,0.2734639933288556,1,0.2079516756590568,1,0.15314320708364
2,0.7999783923771218,2,0.7011038992605627,2,0.6064014255034873,2,0.5158708383092994,2,0.4295743329229598,2,0.3482817661978808,2,0.2736883599266265,2,0.2079082272168408,2,0.1528244853681074
3,0.7999789000608717,3,0.7010761300237701,3,0.6061722313320232,3,0.5152620823654743,3,0.429094914096299,3,0.3479155281247533,3,0.2734318963236313,3,0.2080134554784434,3,0.1531861995143153
4,0.7999767793612615,4,0.7011353506833815,4,0.6063090239212008,4,0.515492854661903,4,0.4291660032626185,4,0.347864204317427,4,0.2735585781971339,4,0.2079069475438174,4,0.1529425074523415
5,0.7999757479563125,5,0.7009485700369386,5,0.6061200315328978,5,0.5155248193366764,5,0.429114478487831,5,0.3477681507536047,5,0.2733839554198319,5,0.2078790066886316,5,0.1527425490041556
6,0.7999777707812621,6,0.701101932960941,6,0.6062116160268546,6,0.515643579878044,6,0.4294126091181669,6,0.348100814550266,6,0.2736977034138435,6,0.2081080186256091,6,0.1532031131682151
7,0.7999772502430363,7,0.7012839660733561,7,0.6061642113671302,7,0.5155610961344569,7,0.4292114857347181,7,0.3479744588142928,7,0.2733455045750416,7,0.2078982018222043,7,0.1529920816538883
8,0.7999786547574418,8,0.7012328483359663,8,0.6062946175353704,8,0.5154290114545824,8,0.4290193732803751,8,0.3480850083602314,8,0.273703111566685,8,0.20792507254414,8,0.1529110427521564
9,0.799977261940223,9,0.7012436990325818,9,0.6065341372632866,9,0.51580883854352,9,0.4294502104670074,9,0.3483482156114519,9,0.2736776091871657,9,0.2080355174262398,9,0.1531434935064704
10,0.7999777717670217,10,0.7011079340563442,10,0.6062346571255853,10,0.5154516909459712,10,0.4292896813736729,10,0.3480222631133348,10,0.2736462535544885,10,0.2080511738980206,10,0.1530990941522937
11,0.79997941966311,11,0.7009355205980303,11,0.605979949628487,11,0.5153460787344607,11,0.4290872139876346,11,0.347967648677285,11,0.2735248506983589,11,0.2078985402960518,11,0.1530875219280962
12,0.7999791340144696,12,0.7010598871351948,12,0.6060888121911459,12,0.5156617505664226,12,0.4293572642412641,12,0.3479745969344515,12,0.2734417548126146,12,0.2078274105891295,12,0.1528809413520657
13,0.7999779365596915,13,0.7010928382258764,13,0.6065194535509004,13,0.5160343010785838,13,0.4295622587172643,13,0.348478297871979,13,0.2739508670058556,13,0.208440121906582,13,0.15322100816667
14,0.7999775155829099,14,0.7013097501504184,14,0.606383286665341,14,0.5154438885766636,14,0.429135280697976,14,0.3477836490710167,14,0.273165749538571,14,0.2075465144853582,14,0.1527189606678429
15,0.7999780164860573,15,0.7011712791709898,15,0.6060531400575462,15,0.5152313548732331,15,0.4288552641565198,15,0.3474284171083258,15,0.2730174087473676,15,0.2077474178170399,15,0.1527747091205988
16,0.799979155213716,16,0.7014280543827168,16,0.6067922441780821,16,0.5161009810679077,16,0.4298288735950139,16,0.3486189662453102,16,0.2740962777103492,16,0.2086028783352189,16,0.1535204419075962
17,0.7999780721316948,17,0.701012586863324,17,0.6060464580999918,17,0.5154259611430667,17,0.4291888580928225,17,0.3479645038765088,17,0.2734985765832876,17,0.2081347310674412,17,0.1531434227044821
18,0.7999776682028662,18,0.7013029293674247,18,0.6063918094422002,18,0.5157913281695709,18,0.4295897612405992,18,0.3482400057536881,18,0.2737681496673541,18,0.208331008126886,18,0.1533808838179246
19,0.7999781367353999,19,0.7011419588035819,19,0.606156325131488,19,0.5155064276886971,19,0.4289277557119334,19,0.3477662785791183,19,0.2735327992242155,19,0.207886924605941,19,0.1530443729557864
20,0.7999776377927366,20,0.7009871217438272,20,0.606039463412185,20,0.5153581435491521,20,0.4290586863443396,20,0.3477799645388385,20,0.273109679270174,20,0.2077354151334355,20,0.1528362129266846
21,0.7999762182717132,21,0.7012603545499823,21,0.6065492473733165,21,0.5159541333859859,21,0.4297204544200781,21,0.3484149628552659,21,0.2739290340082575,21,0.2083620367472003,21,0.1533057803419531
22,0.7999759787073192,22,0.7010696660043415,22,0.6062002176296818,22,0.5153425055431412,22,0.4289525556591077,22,0.3477415384752801,22,0.2731128005037835,22,0.2077242000974721,22,0.1530500564659853
23,0.799977861417704,23,0.7011260817271991,23,0.6064162482249376,23,0.5158795415736906,23,0.4296750982979182,23,0.3485498835440315,23,0.2739882889626883,23,0.2083691874029505,23,0.1533392107457104
24,0.7999788895384379,24,0.7007811109580341,24,0.605868312972549,24,0.5152388456407987,24,0.4288678027924062,24,0.3478851296828178,24,0.2733468107278582,24,0.2077830818482926,24,0.1530164423787
25,0.7999767715568449,25,0.7011728909429524,25,0.6062374977759227,25,0.5155432558648038,25,0.4293721167494591,25,0.3483958933580555,25,0.2738718299408219,25,0.2082111468693364,25,0.1532231775015071
26,0.799977251896808,26,0.7010467285876887,26,0.6062582196971219,26,0.5156098555806127,26,0.4291992188003684,26,0.3479856659279189,26,0.2735797281580993,26,0.208066863454854,26,0.1530995905354269
27,0.7999773832269632,27,0.7011271987670683,27,0.6062184393124443,27,0.5154887962991918,27,0.4291694885782027,27,0.3481464137639496,27,0.2735569891052723,27,0.2079850478318638,27,0.1529919448599485
28,0.7999756554680362,28,0.7010629525979629,28,0.6060157735265315,28,0.5153133573675235,28,0.4292106771543532,28,0.3480601794481251,28,0.2735524985134489,28,0.207892175737653,28,0.1529506209120524
29,0.7999780760075031,29,0.7009353711606386,29,0.6061691997752098,29,0.5153761825061809,29,0.429039529116118,29,0.347972501065474,29,0.2732952394526043,29,0.2079280328515475,29,0.1528559088094891
30,0.7999788834280591,30,0.7013251166233905,30,0.6063556632874835,30,0.5157326800138022,30,0.4292172779160288,30,0.3479138427792305,30,0.2734392995754463,30,0.2080066317821261,30,0.1532085854512161
31,0.7999781838340549,31,0.7010421947691292,31,0.6062385237716975,31,0.5156535391251154,31,0.4293996797017373,31,0.348247763875286,31,0.2735717616052216,31,0.2079235727793639,31,0.1530208987610832
32,0.7999767791829305,32,0.7008988566274751,32,0.605915776239376,32,0.5151418978539417,32,0.4288020567925855,32,0.347729615578757,32,0.2733015686062619,32,0.2076740408605304,32,0.1527888316399675
33,0.7999773301779998,33,0.7009680148330121,33,0.6060887245290919,33,0.5154635501253184,33,0.4292646154431097,33,0.34790569419512,33,0.2732203578260297,33,0.2078292000651056,33,0.1529612112999089
34,0.7999797098878499,34,0.7010951992279729,34,0.6062561289822981,34,0.5154899612396889,34,0.4291602486538401,34,0.3478715683695292,34,0.2735500713096907,34,0.2080823517926568,34,0.1533990207385581
35,0.7999781166001305,35,0.7010628123596615,35,0.6062145530285963,35,0.5156574184940426,35,0.4291646517215478,35,0.3479827276356176,35,0.2733934250919178,35,0.207752182282449,35,0.1529351070111588
36,0.7999789950333054,36,0.7010782155417649,36,0.6063110247313649,36,0.5157278731434053,36,0.4294099393033252,36,0.348288477867079,36,0.2737906620984011,36,0.2081533320125272,36,0.1532712004758031
37,0.7999772888161993,37,0.7010779500522071,37,0.6062321292106791,37,0.5154245948726544,37,0.4292098249237254,37,0.3481210747700861,37,0.2735485921380011,37,0.2078574764779809,37,0.1530348838710094
38,0.7999784860979879,38,0.7012822530531458,38,0.606339230181501,38,0.5154356250048615,38,0.429056651916312,38,0.3479113712795641,38,0.2734494023170335,38,0.2079784911823715,38,0.1529407204498367
39,0.7999770640199543,39,0.7009276639327129,39,0.6061742000954261,39,0.5154236772353629,39,0.4292694863135703,39,0.3481243493749189,39,0.2737055327917417,39,0.2080587827368059,39,0.1530242481085726
40,0.7999772998463531,40,0.7012264559893769,40,0.6063993363208056,40,0.51585328788643,40,0.4297069407326122,40,0.3485095778855442,40,0.2741813981543211,40,0.2086292157687123,40,0.1536861852564921
41,0.7999792400116833,41,0.7009299668895592,41,0.6061679220559036,41,0.5155021246001837,41,0.4291713308419987,41,0.3482592692214945,41,0.2737750357035166,41,0.2082162905731056,41,0.15328920953057
42,0.7999797091870059,42,0.7010359769971487,42,0.6062075291880494,42,0.5155738188064753,42,0.4291917471760421,42,0.3480600098383676,42,0.2735302765108248,42,0.207934989720164,42,0.1529471926940016
43,0.7999786193319472,43,0.7011200305361086,43,0.6062900793795524,43,0.5155506569288089,43,0.4291901368644929,43,0.348060899831413,43,0.2734814241853845,43,0.2079580788128212,43,0.152908815543592
44,0.7999787433593222,44,0.7009947185822168,44,0.606289505418529,44,0.5157737281931837,44,0.4295502595931904,44,0.3484235236470913,44,0.2739705550265499,44,0.2083983392713812,44,0.1534301275065331
45,0.7999776433335939,45,0.7011675608696466,45,0.6063787439342566,45,0.5156933389908436,45,0.429434512646811,45,0.3482329948234006,45,0.2739139028885467,45,0.2083587585395659,45,0.1531671377794391
46,0.799976734316554,46,0.7011061240560198,46,0.6064676626629399,46,0.5157642435808651,46,0.4293656936919767,46,0.348210470042991,46,0.2736364533789297,46,0.2079531169322429,46,0.153211234690542
47,0.799979547160626,47,0.7013744782165141,47,0.6064260690428381,47,0.5157585835639241,47,0.4295861068981432,47,0.3483403768384592,47,0.2740559064121403,47,0.2084014560763554,47,0.153304935640962
48,0.7999773445656644,48,0.7010765912389328,48,0.6061457273798774,48,0.5155616451753837,48,0.4291575580700161,48,0.3481094733804424,48,0.2735541520469912,48,0.2078699502931468,48,0.152925264724566
49,0.7999786261239783,49,0.7010853832389965,49,0.6063633108056713,49,0.515862056547803,49,0.4295640520173521,49,0.3482850233293349,49,0.2739263137482446,49,0.2084530463384241,49,0.1533482735583858
50,0.7999796272203474,50,0.7010101734728544,50,0.6061941882932093,50,0.5155115314070056,50,0.4290970960085525,50,0.3478817668086127,50,0.273591158434242,50,0.2080650547174925,50,0.1532686982247058
