;Version, 1, 0
;Vend0,;Vend1
;X, Y,;X, Y
;Re, Re,;Re, Re
;Iteration, Y,;Iteration, Y
;xunit, V,;xunit, V
1,0.7998319728950239,1,0.14830500882836
2,0.7998253372802938,2,0.1484671114809863
3,0.7998259217516414,3,0.1482211488551322
4,0.7998280596055565,4,0.1483207887944526
5,0.7998277952270063,5,0.1482521850589862
6,0.7998238891527936,6,0.1483307726320537
7,0.7998293238089096,7,0.1480765916265291
8,0.7998258263639618,8,0.1482734208382834
9,0.7998231517625735,9,0.1482974159063745
10,0.7998288312089047,10,0.1481425408251693
11,0.7998252708488842,11,0.1481622483659604
12,0.7998247333334872,12,0.1482021588886797
13,0.7998224769812673,13,0.1482254108166907
14,0.7998274867815536,14,0.1482507563773221
15,0.7998261403580254,15,0.1482308770981489
16,0.7998205867331588,16,0.1480097154305733
17,0.7998258084520395,17,0.1486218151726928
18,0.7998210409738871,18,0.1480496118607853
19,0.7998240444372166,19,0.1482523954451948
20,0.799821864150993,20,0.1478564144387233
21,0.7998236240459394,21,0.1479604388574567
22,0.7998299143395606,22,0.148454744234523
23,0.7998237651342236,23,0.1481408598833925
24,0.7998243389751776,24,0.1484165245799773
25,0.7998246188576851,25,0.1482030558120147
