;Version, 1, 0
;Vend0,;Vend1,;Vend2,;Vend3,;Vend4,;Vend5,;Vend6,;Vend7,;Vend8
;X, Y,;X, Y,;X, Y,;X, Y,;X, Y,;X, Y,;X, Y,;X, Y,;X, Y
;Re, Re,;Re, Re,;Re, Re,;Re, Re,;Re, Re,;Re, Re,;Re, Re,;Re, Re,;Re, Re
;Iteration, Y,;Iteration, Y,;Iteration, Y,;Iteration, Y,;Iteration, Y,;Iteration, Y,;Iteration, Y,;Iteration, Y,;Iteration, Y
;xunit, V,;xunit, V,;xunit, V,;xunit, V,;xunit, V,;xunit, V,;xunit, V,;xunit, V,;xunit, V
1,0.7999774852432173,1,0.7011096769302428,1,0.6060999583583117,1,0.5154204742042471,1,0.4291926223664703,1,0.3479416834487705,1,0.2735811049489454,1,0.2080012105083911,1,0.1532210761858474
2,0.7999776620541577,2,0.7009204914080061,2,0.606212752480114,2,0.5157436010490801,2,0.4293870245310879,2,0.3482295736689223,2,0.2737648583302867,2,0.2081415115402459,2,0.1532678705318928
3,0.7999785605560754,3,0.7010529675519265,3,0.6062397409246875,3,0.5154368367685794,3,0.4290876590094961,3,0.3479348676393785,3,0.273360572535337,3,0.2078731511780611,3,0.1529542314510216
4,0.7999783366568977,4,0.701129371495516,4,0.6066066482628191,4,0.5160850945864101,4,0.4300552337331547,4,0.3489408407705788,4,0.2744527464947839,4,0.2088142190242622,4,0.1539123744423701
5,0.7999788818515861,5,0.7010700045261444,5,0.6062475266346138,5,0.5152274130213066,5,0.4288560338806017,5,0.3478644227457843,5,0.2734416268419432,5,0.2080356235048992,5,0.1532194272376116
6,0.799980012313101,6,0.7010091070700517,6,0.6060748933301551,6,0.515445630654589,6,0.4291578480982484,6,0.3481146660274536,6,0.2736115056751434,6,0.2081041776044381,6,0.1532703434643792
7,0.7999780148132791,7,0.7010382945380753,7,0.6061378794895139,7,0.5155872905301772,7,0.4292966718314494,7,0.3479952584139975,7,0.2734867893622808,7,0.2078973349044354,7,0.1530968748654568
8,0.7999798960512193,8,0.7013278186160703,8,0.6065679912963923,8,0.5156741317692145,8,0.4292983788457814,8,0.3480973251389662,8,0.2734793332748167,8,0.2077843271263306,8,0.1529901780005873
9,0.799979415726992,9,0.7013639897123773,9,0.6065827243786793,9,0.5157865265317522,9,0.4294654559426075,9,0.3481575982728548,9,0.2737526276996437,9,0.2082653099611289,9,0.1534066009801864
10,0.7999792802870286,10,0.7010873006999263,10,0.6063496449892969,10,0.5155549405593924,10,0.4293678446206114,10,0.3483743221968845,10,0.2738527175623265,10,0.2082939547879047,10,0.1535305480034286
11,0.7999790316023132,11,0.7010853769914893,11,0.6063781372862767,11,0.5156217938744224,11,0.4293250139776889,11,0.3483554430361618,11,0.2738537635403824,11,0.2082870936033875,11,0.1533580684914241
12,0.7999789631896281,12,0.7011648735396948,12,0.6062593739113996,12,0.5158384550065167,12,0.4296466945440144,12,0.3484081446481636,12,0.2739271552384794,12,0.2083101422165888,12,0.1535864271553098
13,0.7999778315769777,13,0.7011906552821228,13,0.6064619592927248,13,0.515757021259701,13,0.4293621336541656,13,0.3482428146227523,13,0.2736935358572173,13,0.2081852179496219,13,0.1533437457764411
14,0.799977550486261,14,0.701057970322297,14,0.6062815222058439,14,0.5156533109086915,14,0.4293517512447481,14,0.3480361921848212,14,0.2735457387211194,14,0.2079304570338493,14,0.1529794095975191
15,0.7999791066980769,15,0.7011396181700996,15,0.6063236381547678,15,0.5155908191760911,15,0.4294882215643935,15,0.3482588750934087,15,0.2737490343964661,15,0.2082052175795721,15,0.1532320270821446
16,0.7999784693483473,16,0.7010907685165302,16,0.606284900376738,16,0.5154010644287618,16,0.4292058054146576,16,0.3481838832061557,16,0.2735800657226348,16,0.2081114122534177,16,0.1533480244933404
17,0.7999781750542546,17,0.7010817836907343,17,0.6062227233665001,17,0.5153945729254088,17,0.4290941315477394,17,0.3479290976757782,17,0.2734240778278839,17,0.2079439259703494,17,0.1532115678773963
18,0.7999796596104931,18,0.701198236564785,18,0.6063212635020166,18,0.5157721956796865,18,0.4297301883474699,18,0.3484209558841011,18,0.2740947829250586,18,0.2084811906118831,18,0.1534874941056115
19,0.7999787023029834,19,0.7011411212129232,19,0.6063163634397736,19,0.5156962891059483,19,0.4294623232908933,19,0.3482169298038413,19,0.2737110472307772,19,0.2081476658292999,19,0.1533421354632323
20,0.7999790716766318,20,0.7011474742948416,20,0.6062861703217536,20,0.515621758710335,20,0.4291924623129856,20,0.347823511910809,20,0.2735292762416821,20,0.207940080303576,20,0.1531017880638526
21,0.7999787632995458,21,0.7012341892752011,21,0.6061391040633132,21,0.5154356876151522,21,0.4290553460486261,21,0.3476856480706121,21,0.2733194359096949,21,0.2076627833156092,21,0.1528540294865827
22,0.799978734448648,22,0.7012739035979194,22,0.6062979083471454,22,0.5155735498616281,22,0.4293062873395161,22,0.3479690831598437,22,0.2735878931518977,22,0.2081084698750952,22,0.1531220695270356
23,0.7999775247225027,23,0.7009996050288595,23,0.606153016032204,23,0.5156016143522617,23,0.4293191054140066,23,0.3481054636884406,23,0.2735874120292247,23,0.2080042355443668,23,0.1530668357212226
24,0.7999786328606368,24,0.7012197559677498,24,0.6063967794682856,24,0.5158436948260813,24,0.4296284418405896,24,0.348399836523445,24,0.2738747159383501,24,0.2082510794088121,24,0.153436754994458
25,0.7999780305350679,25,0.7012520315496095,25,0.6065435666875191,25,0.516039281900993,25,0.429599754198655,25,0.3483902346688419,25,0.2739551640945997,25,0.2084826230413517,25,0.1534127409350618
