;Version, 1, 0
;Vend0,;Vend1,;Vend2,;Vend3,;Vend4,;Vend5,;Vend6,;Vend7,;Vend8
;X, Y,;X, Y,;X, Y,;X, Y,;X, Y,;X, Y,;X, Y,;X, Y,;X, Y
;Re, Re,;Re, Re,;Re, Re,;Re, Re,;Re, Re,;Re, Re,;Re, Re,;Re, Re,;Re, Re
;Iteration, Y,;Iteration, Y,;Iteration, Y,;Iteration, Y,;Iteration, Y,;Iteration, Y,;Iteration, Y,;Iteration, Y,;Iteration, Y
;xunit, V,;xunit, V,;xunit, V,;xunit, V,;xunit, V,;xunit, V,;xunit, V,;xunit, V,;xunit, V
1,0.7999045934564325,1,0.6713943328903869,1,0.5786614779682603,1,0.4977931802758986,1,0.4242466098908534,1,0.3520240014787548,1,0.2830201587587285,1,0.2190082037835418,1,0.1607292362352026
2,0.7999122265403867,2,0.6718734597488498,2,0.5791006481551073,2,0.4981680196279756,2,0.4245822945883052,2,0.3519963664597065,2,0.2832361324636635,2,0.2189877455952451,2,0.1606757513815365
3,0.7999108344765464,3,0.6721942815369318,3,0.5795704358194926,3,0.4985646512477708,3,0.4249366270731911,3,0.352438502076159,3,0.2835986009316555,3,0.2192276193441932,3,0.1609282217150212
4,0.7999086854670744,4,0.6718074034742264,4,0.5792912936536111,4,0.498413908556442,4,0.4247906378232116,4,0.352464656453479,4,0.2834946892467056,4,0.2191618419006012,4,0.1610202079903948
5,0.7999090506611677,5,0.6717889170095457,5,0.5790177800726056,5,0.4981770576703923,5,0.4246663517845645,5,0.352402590674246,5,0.2831872970977461,5,0.219080719622556,5,0.1609095574640265
6,0.7998956155542198,6,0.6718541715376182,6,0.5793405573540763,6,0.4984761535632889,6,0.4250760471073773,6,0.3524154354493786,6,0.2835535243350598,6,0.2194546608530057,6,0.1609544761642222
7,0.7999130817361823,7,0.6719332464056391,7,0.5794531613697941,7,0.4986419876219463,7,0.4252074297702381,7,0.3530866087728748,7,0.284023184956229,7,0.2197176423862815,7,0.1611321165695346
8,0.7998979541857626,8,0.6717407307149708,8,0.5792535528736952,8,0.4985517070886112,8,0.4251065137891125,8,0.3524962057158509,8,0.2835492269119974,8,0.2194159512163399,8,0.1611539098782412
9,0.7999058102987597,9,0.6721413214995295,9,0.5793953824531854,9,0.4984204544745839,9,0.4248982976209134,9,0.3524907364151741,9,0.2831116063871975,9,0.2190185829613339,9,0.1607751155299664
10,0.7999038895264168,10,0.6718039692255475,10,0.5793243129946144,10,0.4982975087577581,10,0.4249535236562832,10,0.3523935490300967,10,0.2832784564748578,10,0.2190967735006016,10,0.1607968466348639
11,0.7998939452590575,11,0.6714920319014672,11,0.5787680968793474,11,0.4977812749405461,11,0.4242660805935244,11,0.3517947380482541,11,0.2829449139831814,11,0.2188870436430073,11,0.1605981022359505
12,0.7999003387447415,12,0.6717719830782839,12,0.5792682970734295,12,0.4984823389938248,12,0.4249629768873071,12,0.352360303472257,12,0.2834530991839533,12,0.2190389585590669,12,0.1607140423436746
13,0.7998978971365125,13,0.6720956716817381,13,0.5797774901572011,13,0.4989594638334515,13,0.4254248211427862,13,0.3530729606686302,13,0.2841612683209823,13,0.2197863546040509,13,0.1613269533689498
14,0.7998969777844954,14,0.6717691801744389,14,0.5791340363269285,14,0.498203505908196,14,0.4245365882610226,14,0.3521979865518272,14,0.2831769662328879,14,0.2190107131367658,14,0.1608633272837149
15,0.7999061254120012,15,0.6717944937627915,15,0.5793217939098642,15,0.4984955894631905,15,0.4249624124098815,15,0.3525185689316677,15,0.2834563925995485,15,0.2189133473642057,15,0.1606367267183141
16,0.7998954208610004,16,0.6717331368091951,16,0.5790365540580111,16,0.4982610606669929,16,0.4246835658078844,16,0.3523634162848194,16,0.2834772491752747,16,0.219247981380191,16,0.1607653725870995
17,0.7999081998862135,17,0.6717183031454642,17,0.5791581695526522,17,0.498226888719949,17,0.4245725983618935,17,0.3524367707587361,17,0.2834726092470558,17,0.2191005275804776,17,0.1609051339878176
18,0.7998990097330724,18,0.671791988991804,18,0.5794234674307959,18,0.4986699494301166,18,0.4250165275127108,18,0.3529160583991944,18,0.2838715372503695,18,0.2196492644066938,18,0.161606957606422
19,0.7999070767991997,19,0.6718205670290207,19,0.57890340889818,19,0.4979484730125405,19,0.4244555715975865,19,0.3524606117561014,19,0.283562729109093,19,0.2195077421536742,19,0.1612079582414506
20,0.7998990577800378,20,0.6718047775092921,20,0.579121177772291,20,0.4984499037758707,20,0.4250498887938393,20,0.3527122945792338,20,0.2838009132965695,20,0.219785618085128,20,0.1613804791610454
21,0.7998996045910408,21,0.6718472585035343,21,0.5790147840225307,21,0.4984145966465027,21,0.4250206578400232,21,0.3527457798904284,21,0.2838488834558719,21,0.2195698660025862,21,0.1611638598685985
22,0.7999032958540746,22,0.6717877842776174,22,0.5792986597037979,22,0.4983661603254461,22,0.4246331751352458,22,0.352426031206325,22,0.2834163865492919,22,0.2189044604200528,22,0.1608224330673536
23,0.7998986024420083,23,0.6720839436831431,23,0.5795071216285586,23,0.4987878811965971,23,0.4250790848824619,23,0.3529892007351255,23,0.2835626710630488,23,0.2193428383526825,23,0.1612983842068136
24,0.799896215606871,24,0.6717420762576894,24,0.579244419354954,24,0.4981546207098308,24,0.4246047561945273,24,0.3523973847330997,24,0.2834090885971792,24,0.2191783356616601,24,0.16092039859403
25,0.7999028303332328,25,0.671957163310999,25,0.5792377576479352,25,0.4983206812157698,25,0.4248594268983315,25,0.3529318004712147,25,0.2839786158705622,25,0.2197259066884137,25,0.1612197198303604
