;Version, 1, 0
;Vend0,;Vend1,;Vend2
;X, Y,;X, Y,;X, Y
;Re, Re,;Re, Re,;Re, Re
;Iteration, Y,;Iteration, Y,;Iteration, Y
;xunit, V,;xunit, V,;xunit, V
1,0.7999110090718877,1,0.4299072505175758,1,0.1522880935476686
2,0.7999103526289003,2,0.429674201925564,2,0.1522614109884652
3,0.7999107913573222,3,0.4297844476407551,3,0.1523030687031893
4,0.7999102726748709,4,0.42989789767132,4,0.1523437839889854
5,0.7999140397079442,5,0.430063408760721,5,0.1524716219998282
6,0.799909129918532,6,0.430371714071085,6,0.1530044241289961
7,0.7999141570868237,7,0.4298477256515623,7,0.1522592055513641
8,0.799914102933072,8,0.4301590818438059,8,0.1523159152453047
9,0.799910420646725,9,0.4299400746810835,9,0.1523088268051153
10,0.7999147846693583,10,0.4301757851843242,10,0.1524094398948248
11,0.799911039493936,11,0.4303571435553197,11,0.1523766045929793
12,0.799911231736111,12,0.4301505890513574,12,0.1520943662013219
13,0.799907828136101,13,0.430104546378564,13,0.1524780537854123
14,0.7999139049261288,14,0.4298622996698699,14,0.1521417233462294
15,0.7999128523597272,15,0.4298107936423621,15,0.1524974568896543
16,0.799914192431271,16,0.4298939741577911,16,0.1528582625853902
17,0.7999097608998922,17,0.4301856180059818,17,0.1524741766036298
18,0.7999115133355522,18,0.4300569196006375,18,0.1526689455027794
19,0.7999119809513726,19,0.4303939182135663,19,0.152504039829656
20,0.7999103521661052,20,0.429213208882324,20,0.1517980252505567
21,0.7999150358869838,21,0.429909259010938,21,0.1522129674355025
22,0.7999137605815257,22,0.4299770502846075,22,0.1523005672383211
23,0.7999123558336975,23,0.4301085670387071,23,0.1521652056512705
24,0.7999127139908921,24,0.4299230875614888,24,0.1523327870846726
25,0.7999158241198631,25,0.4295539435836994,25,0.1519170382526975
