;Version, 1, 0
;Vend0,;Vend1,;Vend2,;Vend3,;Vend4,;Vend5,;Vend6,;Vend7,;Vend8,;Vend9,;Vend10,;Vend11,;Vend12,;Vend13,;Vend14,;Vend15,;Vend16,;Vend17,;Vend18,;Vend19,;Vend20,;Vend21,;Vend22,;Vend23,;Vend24,;Vend25,;Vend26,;Vend27,;Vend28,;Vend29,;Vend30,;Vend31,;Vend32
;X, Y,;X, Y,;X, Y,;X, Y,;X, Y,;X, Y,;X, Y,;X, Y,;X, Y,;X, Y,;X, Y,;X, Y,;X, Y,;X, Y,;X, Y,;X, Y,;X, Y,;X, Y,;X, Y,;X, Y,;X, Y,;X, Y,;X, Y,;X, Y,;X, Y,;X, Y,;X, Y,;X, Y,;X, Y,;X, Y,;X, Y,;X, Y,;X, Y
;Re, Re,;Re, Re,;Re, Re,;Re, Re,;Re, Re,;Re, Re,;Re, Re,;Re, Re,;Re, Re,;Re, Re,;Re, Re,;Re, Re,;Re, Re,;Re, Re,;Re, Re,;Re, Re,;Re, Re,;Re, Re,;Re, Re,;Re, Re,;Re, Re,;Re, Re,;Re, Re,;Re, Re,;Re, Re,;Re, Re,;Re, Re,;Re, Re,;Re, Re,;Re, Re,;Re, Re,;Re, Re,;Re, Re
;Iteration, Y,;Iteration, Y,;Iteration, Y,;Iteration, Y,;Iteration, Y,;Iteration, Y,;Iteration, Y,;Iteration, Y,;Iteration, Y,;Iteration, Y,;Iteration, Y,;Iteration, Y,;Iteration, Y,;Iteration, Y,;Iteration, Y,;Iteration, Y,;Iteration, Y,;Iteration, Y,;Iteration, Y,;Iteration, Y,;Iteration, Y,;Iteration, Y,;Iteration, Y,;Iteration, Y,;Iteration, Y,;Iteration, Y,;Iteration, Y,;Iteration, Y,;Iteration, Y,;Iteration, Y,;Iteration, Y,;Iteration, Y,;Iteration, Y
;xunit, V,;xunit, V,;xunit, V,;xunit, V,;xunit, V,;xunit, V,;xunit, V,;xunit, V,;xunit, V,;xunit, V,;xunit, V,;xunit, V,;xunit, V,;xunit, V,;xunit, V,;xunit, V,;xunit, V,;xunit, V,;xunit, V,;xunit, V,;xunit, V,;xunit, V,;xunit, V,;xunit, V,;xunit, V,;xunit, V,;xunit, V,;xunit, V,;xunit, V,;xunit, V,;xunit, V,;xunit, V,;xunit, V
1,0.7997618303562778,1,0.7746456124899366,1,0.7497414935562278,1,0.7250931009978751,1,0.7007662222251815,1,0.6767069350412268,1,0.6528627402322372,1,0.6293272644962454,1,0.6059810017077373,1,0.5828419052611153,1,0.5600012791367951,1,0.5374305068654959,1,0.5151800229969501,1,0.4931203246576042,1,0.4713680049009782,1,0.449935648618679,1,0.4287561282254976,1,0.4079254635250609,1,0.3873840031543199,1,0.3672125774356247,1,0.3475235057416766,1,0.3282783315852119,1,0.309370944032502,1,0.2910195138635835,1,0.2730855615740801,1,0.2557220166496239,1,0.239046292220183,1,0.2229303479291154,1,0.2075284586403543,1,0.1927692438524614,1,0.1787209569023361,1,0.1653249793741848,1,0.1527796357135177
2,0.7997386555754978,2,0.7745639648072226,2,0.7497309760670423,2,0.7251097424926305,2,0.7008231867188515,2,0.6767514716254541,2,0.6529791349776448,2,0.6293825009602695,2,0.6060807818174692,2,0.5829805607774556,2,0.5601623521669059,2,0.5375851547722849,2,0.5153161724604317,2,0.4933306744257557,2,0.4715630090304653,2,0.4501031606282389,2,0.4288583086975432,2,0.4080196401999862,2,0.3874546439303064,2,0.3673178800387047,2,0.3475456598604966,2,0.3281746237503164,2,0.3092510888281708,2,0.2909015321638574,2,0.273033003203675,2,0.2557361164924004,2,0.2390225518359745,2,0.2230051299108398,2,0.2075934053617103,2,0.192823778520847,2,0.1788195357966052,2,0.1654343314329478,2,0.1528262843472828
3,0.7996469525037371,3,0.7745738472791355,3,0.7497279403364743,3,0.725131250851637,3,0.7007758991851656,3,0.6766685795500149,3,0.6528151061140266,3,0.6291782150086672,3,0.6058335576320593,3,0.5827934165777203,3,0.5599555743341187,3,0.5373989731077544,3,0.5150963695212488,3,0.4930964068744543,3,0.4713242382054378,3,0.4498682339607572,3,0.4287346280715272,3,0.4079276870006597,3,0.3873356823873496,3,0.3671718344232207,3,0.347404892650427,3,0.3280520551619088,3,0.3091186724055255,3,0.2906989786422456,3,0.2728845919937977,3,0.2555670044150273,3,0.2388946293589116,3,0.2228080833022628,3,0.2073954418995198,3,0.1925869614104557,3,0.1785921203202296,3,0.1652497224884784,3,0.1526760395488074
4,0.7997389334763264,4,0.7746601624033932,4,0.7498579810814916,4,0.7252886787560322,4,0.7009438900891345,4,0.6768246984694898,4,0.6530381905999766,4,0.6294445884471086,4,0.6061441226720203,4,0.5831529568094963,4,0.5603366844829442,4,0.5378488046348482,4,0.5155127505694427,4,0.4935356244233375,4,0.4717462526857841,4,0.4502869434619723,4,0.4291837268492553,4,0.4083383759816503,4,0.3878054045767518,4,0.3676008549037627,4,0.3478274325055924,4,0.3284327923115285,4,0.3095645422922567,4,0.2911702978843985,4,0.2733601348452149,4,0.2560802807876336,4,0.2393334673783068,4,0.2232218682398776,4,0.2077553420319057,4,0.192979491904778,4,0.1789278513395731,4,0.1655359016239901,4,0.1528246681902918
5,0.7996465504505804,5,0.7745167893715931,5,0.7496452037125958,5,0.7250670979223801,5,0.7007643705850932,5,0.6766111056957446,5,0.6526730933493714,5,0.6290147416891843,5,0.6056406980365306,5,0.5825793740336564,5,0.5596961521576975,5,0.537097815137815,5,0.5147675536033512,5,0.4928039457169832,5,0.4711407280858463,5,0.4496824787757268,5,0.4284963709778225,5,0.4076479787697214,5,0.3872135468608246,5,0.3670498274909442,5,0.3473132003762252,5,0.32795770767788,5,0.3091056438999409,5,0.2907249105643232,5,0.2728902232462346,5,0.2555777149048565,5,0.2389271554763397,5,0.2228952954997825,5,0.2074411724888594,5,0.1926187002425948,5,0.1785873485950497,5,0.1652788457856129,5,0.1526489490693702
6,0.799643723335195,6,0.7744305945081369,6,0.7495629014177212,6,0.7249244607643452,6,0.7005531359190517,6,0.6764539474178002,6,0.6526221224012621,6,0.6290359470842262,6,0.6056840676719427,6,0.5826964730384254,6,0.559926975418504,6,0.5373253477602254,6,0.5150214121956644,6,0.4929543569479454,6,0.471146187141316,6,0.4496407382702796,6,0.4285234685720852,6,0.4076563062119434,6,0.3871546895593789,6,0.3670825026288961,6,0.3473585457877739,6,0.3280420483349079,6,0.3091499885729973,6,0.290782668437048,6,0.2729024580479575,6,0.2556344483890885,6,0.2389359642015288,6,0.2228271777108863,6,0.2073860813454746,6,0.1926813525522684,6,0.1785798694502099,6,0.1652707002400907,6,0.152614717813329
7,0.7996462797761459,7,0.7744595493358598,7,0.7495916436324002,7,0.7250400718937088,7,0.7006607844066903,7,0.6765854824919219,7,0.6527080514990703,7,0.6291249659896515,7,0.6057603159398862,7,0.5827199091675599,7,0.5599162915298864,7,0.5373200098993637,7,0.5149675789608315,7,0.4929193516884249,7,0.4711839918890371,7,0.4496928993237626,7,0.4285197698176855,7,0.4077222153637358,7,0.3871677697480779,7,0.3670225537527489,7,0.3473643864501978,7,0.3280709989497309,7,0.3091988152186285,7,0.2908246957532614,7,0.2729529097751055,7,0.2556758374799646,7,0.2389131320214314,7,0.2228036502628329,7,0.2074481885306391,7,0.1927084574579412,7,0.178648946966581,7,0.1652914359147004,7,0.152627546545157
8,0.7996465473963299,8,0.7745695226441699,8,0.7497624896534378,8,0.7252304620930923,8,0.7008097895708961,8,0.6766539269734632,8,0.6527909144605921,8,0.6292211768700541,8,0.605858028967118,8,0.582829252532493,8,0.5600353958887535,8,0.53751743647228,8,0.5151791656929928,8,0.4931046239154463,8,0.4713445368302047,8,0.4498466433891246,8,0.4286709628896277,8,0.4079192376043168,8,0.3874136230932397,8,0.367213374077762,8,0.3474259185826231,8,0.3281277845374244,8,0.3092529148814012,8,0.2908691977953844,8,0.27305604709137,8,0.2557654702004803,8,0.2390963642978284,8,0.223039794810009,8,0.2076005708477958,8,0.1928625452525268,8,0.1787925844374268,8,0.1654506865995511,8,0.1528123190632826
9,0.7997616045213899,9,0.7746094813329628,9,0.7497768537113245,9,0.7252193560571835,9,0.7009233987375497,9,0.6767614901949158,9,0.6528490452473881,9,0.6292014775956277,9,0.6060174470702679,9,0.5829281842455859,9,0.5601065404768817,9,0.5374749275326942,9,0.5151778972101058,9,0.4931494054500935,9,0.4713751603128964,9,0.4498664213691514,9,0.4286950055507128,9,0.4078028093305785,9,0.3873635544324359,9,0.3672014344419832,9,0.3474572254311601,9,0.3281456076684388,9,0.3093056215244954,9,0.2908570378245317,9,0.2730057201091363,9,0.255684230928541,9,0.2389859777302253,9,0.2229314187909563,9,0.2075344364773506,9,0.1927811488534631,9,0.1786680835368135,9,0.1653758623869057,9,0.1527153563959096
10,0.7997608044272857,10,0.7745948304157312,10,0.7497577179701148,10,0.7252278920968077,10,0.700794087735758,10,0.6767059273413918,10,0.652841423006949,10,0.6291929879350454,10,0.6058485724310344,10,0.5827454079567964,10,0.559994163004578,10,0.5374998401508677,10,0.5152137377306463,10,0.4932071543969173,10,0.4715018552034562,10,0.4500729247639816,10,0.4289146671831335,10,0.4080125677421983,10,0.387593099365155,10,0.367442021277506,10,0.3476775392792129,10,0.3283339290257193,10,0.3094940524258172,10,0.2910492899633729,10,0.2731656223655,10,0.2558308048356275,10,0.2390945191061845,10,0.2230340827433425,10,0.2075949393686506,10,0.1928778951694938,10,0.1788778760719067,10,0.1654853451433826,10,0.1527796811735323
11,0.7997385163110302,11,0.7746035012985818,11,0.7497069251940612,11,0.7250636047979926,11,0.7006474504588404,11,0.6765433862974422,11,0.6526312433248246,11,0.6290240477598302,11,0.6056929580544147,11,0.5826399128864309,11,0.5597638179131179,11,0.5371551876979282,11,0.5148515495427292,11,0.4928279908825813,11,0.4711090789815084,11,0.4496783033400559,11,0.4284945811032008,11,0.4075858281518828,11,0.387040359516426,11,0.3668600164383936,11,0.3470695398130732,11,0.327725595375414,11,0.3088456528220521,11,0.2904618170172956,11,0.2725114065427757,11,0.2552075580445146,11,0.2385533530639737,11,0.2224219022525477,11,0.2069841056006724,11,0.1922410280449491,11,0.1783090560290127,11,0.1649459160280123,11,0.1523774108499605
12,0.7997613059300241,12,0.7745712664135894,12,0.7497185187955728,12,0.7251186519235056,12,0.700798135616737,12,0.6766909547872455,12,0.6528963118837892,12,0.6293499481353074,12,0.6059201121962513,12,0.5828379015420182,12,0.5599506513785792,12,0.5373264894635025,12,0.5150764455108693,12,0.4930271411227951,12,0.4712571648968021,12,0.4497962727612823,12,0.4285529981007861,12,0.4077570723631865,12,0.3872254521027766,12,0.367019263779557,12,0.3472876288548127,12,0.327993202418981,12,0.3090932004993575,12,0.2906845862255821,12,0.2728855087599439,12,0.2556272829011788,12,0.2389165320952811,12,0.222817470517589,12,0.2074521856874968,12,0.1927370637385805,12,0.1786265979961236,12,0.1652471350421344,12,0.1525462366561871
13,0.7996464319901009,13,0.7745748438551349,13,0.7496531410333839,13,0.7250489416498777,13,0.7006190297687838,13,0.6764780694325496,13,0.6526340828301386,13,0.6290112699756666,13,0.6057032907376297,13,0.5825343291483458,13,0.5597277529369353,13,0.5371664071614617,13,0.5149475405604255,13,0.4929169758043032,13,0.4712130446379745,13,0.4497815688228133,13,0.4286008490695055,13,0.4077919223553735,13,0.387307934113258,13,0.3671857158538943,13,0.3474441497065612,13,0.3281071328049004,13,0.3092358926425495,13,0.2908518479155909,13,0.272992789575238,13,0.2556761775420578,13,0.2390028818349239,13,0.2228809560514866,13,0.2075371650207304,13,0.1928654748425694,13,0.1788010533929796,13,0.1654925637606209,13,0.1528267874624863
14,0.7996467062077595,14,0.7746166799466988,14,0.7496870533223793,14,0.7250551404808715,14,0.700682367476621,14,0.6765641379475511,14,0.6527331150589041,14,0.6291296580121004,14,0.6058010329822323,14,0.5826906853221191,14,0.5599025401184687,14,0.5373813441146638,14,0.5150481920077623,14,0.492997390481599,14,0.4711733240611582,14,0.4497632158536527,14,0.4286220345832554,14,0.4077984347431048,14,0.3872777072176855,14,0.3670530905069845,14,0.3472891804174827,14,0.3279229125587591,14,0.3090309108126253,14,0.2906362290923541,14,0.2726931620021368,14,0.2554087665116083,14,0.2387498979967032,14,0.2226546785170329,14,0.2072144128650558,14,0.192531535850809,14,0.1785062820803253,14,0.1651918518974793,14,0.1526530566250572
15,0.7997387326598647,15,0.7746379050557308,15,0.7498455865324152,15,0.7253049441519213,15,0.7009699266165387,15,0.6769244720896583,15,0.6530760521421444,15,0.6295501305378708,15,0.6062007537895122,15,0.5831514369443471,15,0.5603034929042058,15,0.5378530112744081,15,0.5155506208594308,15,0.4935459959196047,15,0.471810036104872,15,0.4503791968574691,15,0.4291912578236751,15,0.4083464314565139,15,0.3878825619754286,15,0.3676754725146207,15,0.3478281319919555,15,0.3283929604872278,15,0.3095380602752008,15,0.2911040557131886,15,0.273303260426952,15,0.2559379768173417,15,0.2391977585661451,15,0.2231059011054867,15,0.207604424073561,15,0.1929029057388672,15,0.1788893759460843,15,0.1655851602496769,15,0.1528904404991211
16,0.7996473529578155,16,0.7745212959320261,16,0.749612939569445,16,0.7249578725360684,16,0.7005808927316124,16,0.6764887624218465,16,0.6526198416514487,16,0.6290368022867578,16,0.6056642362333536,16,0.5826516460355489,16,0.5597936358570819,16,0.5372530697530413,16,0.5149395385389288,16,0.4929399941800252,16,0.4711392950963604,16,0.4496457985086932,16,0.4285593850939619,16,0.4077046374069623,16,0.3871675367933778,16,0.3670958753071296,16,0.3473912827542979,16,0.3279702787600441,16,0.3091167936435575,16,0.2907195722832387,16,0.2728817349348265,16,0.2556056920378952,16,0.2389290409043072,16,0.2227586799884298,16,0.2072945959885953,16,0.1925766106850259,16,0.1785535749200726,16,0.1652372938954054,16,0.1526245387897796
17,0.7996771355987224,17,0.7745642438684578,17,0.7496949583639829,17,0.7250870134761058,17,0.7007356574739428,17,0.6766506165861489,17,0.6527213119714034,17,0.6290647420500105,17,0.6056841182696983,17,0.5826459891986198,17,0.5598486509445767,17,0.5372624103051316,17,0.514885383157859,17,0.4929180800816478,17,0.4712200843972332,17,0.4498339028480022,17,0.4287147551205963,17,0.4079078248763698,17,0.3874581472253094,17,0.3673011981274772,17,0.3475548285834262,17,0.3282540539444664,17,0.309346035724513,17,0.2909757468099052,17,0.2731942662925819,17,0.2558760292831576,17,0.2392502975012721,17,0.2231797045946815,17,0.2077635421862772,17,0.1929694986407131,17,0.178920716401998,17,0.1655230536313793,17,0.1528127584684351
18,0.7997387317077068,18,0.774631437881947,18,0.7497853428396877,18,0.7252116853173489,18,0.7007977292589932,18,0.6767326335817285,18,0.6528103801878874,18,0.6291853209870844,18,0.6059223692061152,18,0.5828793414398314,18,0.5601517794918088,18,0.5376584176894464,18,0.5153742473740792,18,0.4934008430555517,18,0.4716638374474185,18,0.4502066555261079,18,0.4290987342728975,18,0.4083464816189892,18,0.3878446923380567,18,0.3676436616384143,18,0.3478840294575963,18,0.3285502380985328,18,0.3096368346036238,18,0.2913091703943754,18,0.2734321611569002,18,0.2561993806641603,18,0.2394733078503831,18,0.223422487784512,18,0.2080570553521916,18,0.1932362639217184,18,0.1791492216140297,18,0.1657483559710536,18,0.1531168136004672
19,0.7996769448681699,19,0.774505993785339,19,0.7496248021422359,19,0.7250801669413971,19,0.7007306623178022,19,0.6767283644487,19,0.6528503947582802,19,0.629257276332118,19,0.6059422847948819,19,0.5828952945250876,19,0.560139175493674,19,0.5375694447328403,19,0.5152561776273499,19,0.493247790618298,19,0.4714537682697635,19,0.4499516664419299,19,0.4288365219117131,19,0.4079951428900811,19,0.3875044272617212,19,0.3673539194337474,19,0.3476505547346105,19,0.3282827824033025,19,0.3093981695451044,19,0.2910474229948767,19,0.2731865253452934,19,0.2559370178346614,19,0.2392072584516041,19,0.2231419418792575,19,0.2077142129981547,19,0.1929673838620043,19,0.1789282930401668,19,0.165530738156252,19,0.1528906992582609
20,0.7996467435753407,20,0.7745863186361295,20,0.7497155719435028,20,0.7250292607012297,20,0.7006645431584427,20,0.676603840540968,20,0.6527438219146132,20,0.6291569075450921,20,0.6057972342330092,20,0.5827043105284938,20,0.5598963961877187,20,0.5373146379308857,20,0.5149664567548196,20,0.493002000628193,20,0.4713435612332582,20,0.449973409016389,20,0.4288643924572264,20,0.408016781093938,20,0.3874781874264445,20,0.3673514481392536,20,0.3475916273458323,20,0.3282769651344407,20,0.3093664571539814,20,0.2909927334733312,20,0.2731587120242561,20,0.2558482622733362,20,0.2391282966395057,20,0.2230538866606964,20,0.2075979755330766,20,0.1928458263209026,20,0.1788413991546873,20,0.1655216340512956,20,0.1529640914259551
21,0.7996463467449183,21,0.7745961815867264,21,0.749716493487201,21,0.7251718638998917,21,0.7007883124587819,21,0.6766722040279336,21,0.6527661304390099,21,0.6291406907634002,21,0.6057524997911145,21,0.5826792077319899,21,0.5597924807363512,21,0.537223731590639,21,0.5149053663759999,21,0.4928991558309523,21,0.4712092346005588,21,0.4497781078215725,21,0.428635272765977,21,0.407824371496265,21,0.3873249407258054,21,0.3671835197173738,21,0.3474325092724712,21,0.3281024662910066,21,0.3092697412620672,21,0.2908650172805485,21,0.2729941533109884,21,0.2556938843855711,21,0.2389736495599454,21,0.2228541361822072,21,0.2075394249364665,21,0.1927577925519114,21,0.1786673302494981,21,0.165269305292816,21,0.1526787718633355
22,0.7996465599906943,22,0.7744923274222605,22,0.7496451572116759,22,0.7250385587865527,22,0.7007185896998569,22,0.6765078082849429,22,0.6526478953678596,22,0.629104499026247,22,0.6057723168955216,22,0.5826897723701372,22,0.5598215829617124,22,0.5372890180947785,22,0.5150560477739768,22,0.4930259490080963,22,0.4712757504447923,22,0.4498854493864622,22,0.4286607903975089,22,0.4078724880053184,22,0.3873702699269607,22,0.367232649042982,22,0.3474961099706136,22,0.3281707019005923,22,0.309269312032136,22,0.2908530756591924,22,0.2729333190998736,22,0.2556393990306157,22,0.2389982768426874,22,0.2228784573829742,22,0.2075159149821529,22,0.1928200863288739,22,0.1786893617771362,22,0.1653671463301234,22,0.1527735292870546
23,0.7997392437633816,23,0.7745881114587765,23,0.74965089161195,23,0.725022841246839,23,0.7007100517536183,23,0.676638486794734,23,0.652753558577251,23,0.6291482102868766,23,0.6057767401067009,23,0.5827266908188645,23,0.5598912606873356,23,0.5373120849600441,23,0.5149369581250879,23,0.4929193576676314,23,0.4712145878171965,23,0.4497428353131088,23,0.4286077438442084,23,0.4077290510345152,23,0.387216522620932,23,0.3670650004323223,23,0.3473908898550576,23,0.3280604404711768,23,0.3091996301519486,23,0.2907569378970462,23,0.2728670592835075,23,0.2555633209358033,23,0.2388447453731447,23,0.2227000531884175,23,0.2072775977718078,23,0.1924917878414934,23,0.1784099669455108,23,0.1651250410595752,23,0.1525323073505425
24,0.7996468116215465,24,0.7745454435206353,24,0.7496822062496142,24,0.725119216245004,24,0.7008337754644033,24,0.6767101805394663,24,0.6528574876850398,24,0.6293161685383062,24,0.6059274387669068,24,0.5828266440667722,24,0.5599333497928276,24,0.5374121093786312,24,0.515163100107307,24,0.4931640878682432,24,0.4714496024362168,24,0.4500121959944177,24,0.4288571407802224,24,0.4080671901300515,24,0.3875951791129119,24,0.3674079016550207,24,0.3477063019139151,24,0.328482115289869,24,0.3095745098592588,24,0.2911530235093188,24,0.273255115234477,24,0.2559430559248392,24,0.2391496905978514,24,0.2230795588181452,24,0.2076459357899352,24,0.1928745091752308,24,0.1788525610681096,24,0.1655188749226461,24,0.1527839972614521
25,0.7996778746217217,25,0.7745289498337853,25,0.7496383059003618,25,0.7250150209485792,25,0.7006819365627186,25,0.6766498240039737,25,0.6529059875592803,25,0.6293258174686484,25,0.6059894049688445,25,0.5829324394342276,25,0.5600304260409394,25,0.5375002192993317,25,0.5151993734085604,25,0.4932191319895845,25,0.4715075633418532,25,0.4500751723280227,25,0.4289596973590308,25,0.4081791867488258,25,0.3876370266769757,25,0.3674723521955629,25,0.347695078909718,25,0.3283102341355804,25,0.3093689095430088,25,0.2909542743829734,25,0.2731263229683928,25,0.2558212800300305,25,0.2391062772351126,25,0.2230480588156476,25,0.207636927115669,25,0.1929703364647404,25,0.1788977976576711,25,0.1655016835368716,25,0.1527641824746726
