;Version, 1, 0
;Vend0,;Vend1,;Vend2,;Vend3,;Vend4,;Vend5,;Vend6,;Vend7,;Vend8,;Vend9,;Vend10,;Vend11,;Vend12,;Vend13,;Vend14,;Vend15,;Vend16
;X, Y,;X, Y,;X, Y,;X, Y,;X, Y,;X, Y,;X, Y,;X, Y,;X, Y,;X, Y,;X, Y,;X, Y,;X, Y,;X, Y,;X, Y,;X, Y,;X, Y
;Re, Re,;Re, Re,;Re, Re,;Re, Re,;Re, Re,;Re, Re,;Re, Re,;Re, Re,;Re, Re,;Re, Re,;Re, Re,;Re, Re,;Re, Re,;Re, Re,;Re, Re,;Re, Re,;Re, Re
;Iteration, Y,;Iteration, Y,;Iteration, Y,;Iteration, Y,;Iteration, Y,;Iteration, Y,;Iteration, Y,;Iteration, Y,;Iteration, Y,;Iteration, Y,;Iteration, Y,;Iteration, Y,;Iteration, Y,;Iteration, Y,;Iteration, Y,;Iteration, Y,;Iteration, Y
;xunit, V,;xunit, V,;xunit, V,;xunit, V,;xunit, V,;xunit, V,;xunit, V,;xunit, V,;xunit, V,;xunit, V,;xunit, V,;xunit, V,;xunit, V,;xunit, V,;xunit, V,;xunit, V,;xunit, V
1,0.7999880038475853,1,0.7500872451808829,1,0.7011225314002932,1,0.6529880067927814,1,0.6060228403464842,1,0.5602976515346376,1,0.5155142271845372,1,0.471780809412557,1,0.4290388350004942,1,0.3877014685219877,1,0.3478034609546837,1,0.3096170787250781,1,0.2733511337026839,1,0.2392521764945796,1,0.207614369605507,1,0.1789511134874277,1,0.1530684825028868
2,0.7999879599162631,2,0.7499620113916312,2,0.701108997189281,2,0.653226867393892,2,0.6062658337479631,2,0.5602956543931954,2,0.5153027466093033,2,0.4716456795950284,2,0.4290487261544292,2,0.3877347677191722,2,0.3479479958394572,2,0.3098132946614273,2,0.2734695764040147,2,0.2393974378074324,2,0.207806167536081,2,0.1790105565689271,2,0.1530139437366901
3,0.7999885685453366,3,0.7500769055135041,3,0.701102513165424,3,0.6532556444646443,3,0.6062411252273454,3,0.5603522523749193,3,0.5155756314671888,3,0.4718486719972061,3,0.4291863513377631,3,0.3877666506637935,3,0.3478334861607549,3,0.3096107241190069,3,0.2732613635560884,3,0.2391544438921715,3,0.2075746200529957,3,0.1787957043718668,3,0.1526610580987142
4,0.7999888882544884,4,0.7498868140698162,4,0.7009407515923433,4,0.6530973435441261,4,0.6061966213848298,4,0.5602910311200806,4,0.515540066259126,4,0.4717957911807577,4,0.4293502383455345,4,0.3880024720106006,4,0.3482411777313136,4,0.3100694630919786,4,0.2739378064776161,4,0.2398517827890164,4,0.2083222475894994,4,0.1795020228559858,4,0.1534574154871239
5,0.7999887497151354,5,0.7500019272640293,5,0.7010484226448882,5,0.6530287430981176,5,0.6061071899154145,5,0.560154526981359,5,0.5153127616762483,5,0.4714672650332173,5,0.4288908000410473,5,0.3876820314985246,5,0.3476025607777957,5,0.309460670153643,5,0.2731014645469351,5,0.2390421269783197,5,0.2076532007353404,5,0.1788092958702173,5,0.1527812626057251
6,0.7999882256417215,6,0.7500493752727706,6,0.7010602872917897,6,0.6531924975739808,6,0.6063762492191224,6,0.560434924549191,6,0.5156512158555582,6,0.4720199331126864,6,0.4294100061828834,6,0.3881599657757868,6,0.348352980539787,6,0.3100324906327808,6,0.2737385481089632,6,0.2398056448259292,6,0.2083203228366017,6,0.1793509059663758,6,0.1531844102456477
7,0.7999896792021061,7,0.7498722478467678,7,0.7008131044762608,7,0.6528851708734249,7,0.6059364966469063,7,0.5601472840794228,7,0.5152718788636629,7,0.471454743953272,7,0.4288304390469904,7,0.3875584462648348,7,0.3477541649267691,7,0.3096009218896694,7,0.273254077118644,7,0.2392800137120952,7,0.2077696759311086,7,0.1789073048115738,7,0.1528774662041901
8,0.7999888357617938,8,0.7500324976989752,8,0.7010547667174042,8,0.6530697424132335,8,0.6060593457109226,8,0.560228623474488,8,0.5155079442308571,8,0.4717170867192327,8,0.4291304257415105,8,0.3877636651412,8,0.3478767431619527,8,0.30983934581921,8,0.2734666851644825,8,0.2395100909486544,8,0.207947144289535,8,0.179236409619022,8,0.1530436113357042
9,0.7999892294626438,9,0.7500476815221098,9,0.7009320770722554,9,0.6528843510535945,9,0.6059132623463843,9,0.5600247326406121,9,0.515317967115773,9,0.4716975113800518,9,0.4290969344700489,9,0.387806884065247,9,0.3479187854467952,9,0.3097287989695209,9,0.2734981960845803,9,0.2395324307152074,9,0.207946507298556,9,0.1791265037327784,9,0.1531704147744413
10,0.799989011599285,10,0.7499069132919506,10,0.7010168169252389,10,0.6530642707408554,10,0.6061410968342106,10,0.5602589427200799,10,0.5153884653769401,10,0.4715691907803622,10,0.4291347138974324,10,0.3879274769068025,10,0.3479159850984374,10,0.3098408597169379,10,0.2734887569712718,10,0.2394906273014754,10,0.2080148924062949,10,0.1792424154508249,10,0.1532642944546047
11,0.7999896617863171,11,0.7499845542497348,11,0.7009457832439263,11,0.6528353489083442,11,0.6061220574711551,11,0.5602338327853346,11,0.5153837802380491,11,0.4716368456574571,11,0.4291095773943043,11,0.3877069211877506,11,0.3478526116889439,11,0.3095453626017405,11,0.2732652850692803,11,0.2392671918989581,11,0.2078635281994697,11,0.1790908914939266,11,0.1530781403630675
12,0.7999876359628136,12,0.7500562981435728,12,0.7011222790798185,12,0.6532322688967968,12,0.6062366970697973,12,0.5603543335836051,12,0.51552320361305,12,0.4716831414875496,12,0.4290459944767951,12,0.3876940370061734,12,0.3480168845533524,12,0.3098639438607133,12,0.2736339013990491,12,0.2396096796503899,12,0.2079253467687381,12,0.1790073543878079,12,0.1529642001494958
13,0.7999891069299639,13,0.7499643996914348,13,0.7009972592193606,13,0.6531642014055942,13,0.6062344245603866,13,0.5602951934704635,13,0.5154565818084388,13,0.4717480252943011,13,0.4291749015225344,13,0.38793128082845,13,0.347982363638784,13,0.3096593841814215,13,0.2733149282818834,13,0.2394136730200103,13,0.2079269675935823,13,0.1790700678474446,13,0.152915711241959
14,0.7999890770453539,14,0.7500420146118683,14,0.7010583919770695,14,0.6530284915676321,14,0.6060277746620333,14,0.5600885288712337,14,0.5151984235819348,14,0.4715678272207705,14,0.4290115770404215,14,0.3876658168778818,14,0.3478369591619259,14,0.3096863631533039,14,0.273453335132079,14,0.2393532178330341,14,0.2077907872212079,14,0.1789687564688816,14,0.1528501609479651
15,0.7999892157926183,15,0.7498584510447573,15,0.7009241843210541,15,0.6529697996092332,15,0.606165971818755,15,0.5602634922896539,15,0.5154445542188956,15,0.4716559548313964,15,0.4290392228102567,15,0.3877948908598859,15,0.3478419509991078,15,0.3096718995112888,15,0.2735135823624268,15,0.2393863546085314,15,0.2078116537295322,15,0.1790748398987662,15,0.1530364324711928
16,0.7999891987029575,16,0.7499991929370358,16,0.7010183307962667,16,0.6530302530912065,16,0.6060240102683762,16,0.5602028558767759,16,0.5153125782039392,16,0.4715987839527686,16,0.4289917896302953,16,0.3876889809669877,16,0.3477520419357398,16,0.309573117231642,16,0.2732746004543443,16,0.2393284595984688,16,0.2078989765326181,16,0.1790372483712192,16,0.153009858857695
17,0.7999893781929881,17,0.7499124890289018,17,0.7009657522955404,17,0.6530279044886153,17,0.6061067281072385,17,0.5601139425636302,17,0.5152145917440519,17,0.4714929598029786,17,0.4287918988741076,17,0.3873085427503262,17,0.3473894074021938,17,0.3093007835644699,17,0.2730383180397472,17,0.239021036923329,17,0.2075188361207262,17,0.1787242968671977,17,0.1526696788536847
18,0.7999885696524772,18,0.7499743742232352,18,0.700861419028118,18,0.6529367836499671,18,0.6060452975343719,18,0.56013015573753,18,0.515332205323593,18,0.4715036780385092,18,0.428892397630367,18,0.3877292178446299,18,0.348050245298395,18,0.3098262620322785,18,0.2737151837085387,18,0.2396202786628575,18,0.2080453721593605,18,0.1792148316108851,18,0.1532733801032827
19,0.7999891192971406,19,0.7501726153678206,19,0.7011860659254181,19,0.653185034457144,19,0.6062065689251712,19,0.5602719298799501,19,0.5154366270739608,19,0.4718004441474443,19,0.4291529586504141,19,0.3878460223146971,19,0.3479380707264934,19,0.3095781157611452,19,0.2732877655118791,19,0.2391752937184348,19,0.2076620330747206,19,0.1788876010050767,19,0.1528396178883986
20,0.7999888172641599,20,0.7500220104456217,20,0.7010876754394249,20,0.6533159524429974,20,0.6064436330142262,20,0.5604518752434706,20,0.5156172683936925,20,0.4719234269525499,20,0.4293513346755824,20,0.3880196649950138,20,0.3482230883378152,20,0.310089853397875,20,0.2737735807645487,20,0.239721563503574,20,0.2080411075686184,20,0.17922367296516,20,0.1532333504508962
21,0.7999886732359773,21,0.7499427456943903,21,0.7009031407819739,21,0.6529244766431657,21,0.6058948201875671,21,0.5600173952008358,21,0.5152776023985749,21,0.4715270521704678,21,0.4287169572658596,21,0.3873289985611607,21,0.3474555096318034,21,0.3091492501994517,21,0.2728611741534388,21,0.2388691477244739,21,0.2073721153969709,21,0.1787377039648237,21,0.1528085075037521
22,0.7999874566225209,22,0.7500767395900462,22,0.70107907309748,22,0.6532346099051085,22,0.6063177562032225,22,0.5605214159401765,22,0.5157482818037404,22,0.4718608322500842,22,0.4292539712537337,22,0.3877757683861681,22,0.3478210145756234,22,0.3095287576607588,22,0.2732766257854087,22,0.2392138353839861,22,0.2075444388959775,22,0.1787141346249639,22,0.1527410869086402
23,0.7999883191916122,23,0.749996567513073,23,0.7010002550301169,23,0.6530644272280297,23,0.6060551621651702,23,0.5601528235141268,23,0.5153788621586549,23,0.4715929719665895,23,0.4289614780586429,23,0.3876846206215533,23,0.3478008959047524,23,0.3095886468251506,23,0.2732826481163712,23,0.2393314002504159,23,0.207806756225011,23,0.1788739623662846,23,0.1528307401971949
24,0.7999891167205844,24,0.7500305341104614,24,0.701098700125473,24,0.6531471993103281,24,0.6062562716662836,24,0.5603817312517622,24,0.5155616961286545,24,0.4718655679563432,24,0.429244152849743,24,0.387950009493073,24,0.3481100952608951,24,0.310044411762176,24,0.2737626462126741,24,0.2398966340926201,24,0.2083250252513673,24,0.1794804454801218,24,0.1533757148036715
25,0.7999890189603355,25,0.7498354643401445,25,0.7008516857203915,25,0.6529876699157223,25,0.6061035879912015,25,0.5601087929351625,25,0.5153120543065789,25,0.4715897310792204,25,0.4289470805272897,25,0.387560852446459,25,0.3477783345102247,25,0.3094373164568588,25,0.2731385041416107,25,0.2391553216438185,25,0.2076778030386757,25,0.1788172153778946,25,0.1528071861592465
26,0.7999887499188937,26,0.7500393006398506,26,0.7010930269255944,26,0.6530094552486587,26,0.6060483389112659,26,0.560074186919582,26,0.5151879709092714,26,0.4715054278959695,26,0.4288895319513482,26,0.3876084699872042,26,0.3477861701984192,26,0.3094040791376214,26,0.2730903278178158,26,0.2391505071190709,26,0.2074579964565844,26,0.1787685882279807,26,0.1528721599846939
27,0.7999888986465864,27,0.7499464913255188,27,0.7010601348552824,27,0.6531152303970301,27,0.6060532500355361,27,0.5600604731731861,27,0.5151150798157911,27,0.4714702106609643,27,0.428822084188332,27,0.387463809715404,27,0.3475598236069976,27,0.3095255151953339,27,0.2734146158588288,27,0.2393114877119373,27,0.2078903328745874,27,0.1790122064119962,27,0.1530257166381888
28,0.7999893929975501,28,0.750094288724064,28,0.7011517723112374,28,0.6532898243344896,28,0.60628264119898,28,0.5603797899644539,28,0.5156103553682466,28,0.4718391089065466,28,0.4292582823135851,28,0.3879486382915283,28,0.3481066347003473,28,0.3098940273147762,28,0.2735891292852575,28,0.239574511972762,28,0.2082104101879006,28,0.1794073684088929,28,0.1533101302201997
29,0.799987718615141,29,0.7499910383777945,29,0.700940912516796,29,0.6528838719546427,29,0.6059801060468052,29,0.5600967668736517,29,0.5154214029170531,29,0.4716698930610995,29,0.4292138654819716,29,0.3879030074754868,29,0.3480535862302043,29,0.3097620729216125,29,0.2735116963353049,29,0.2396096046804618,29,0.208091495517371,29,0.1792437714264962,29,0.1531181225194399
30,0.7999876988995689,30,0.7500380137662586,30,0.7011478566851135,30,0.6531021975786061,30,0.6061547649233479,30,0.5602557254341239,30,0.5153106163090048,30,0.4716084770533961,30,0.4289915956631526,30,0.3875469472015774,30,0.3476985850536832,30,0.3095139143628487,30,0.2732871311308501,30,0.2391895477184506,30,0.207603559810507,30,0.1788670733643609,30,0.1529301770648581
31,0.7999882338616751,31,0.7499840487532053,31,0.7009997963351823,31,0.652921298999074,31,0.6060234856923732,31,0.560129287005061,31,0.5153442880353625,31,0.4716486519697062,31,0.429028434431902,31,0.3875535807825298,31,0.347543670512593,31,0.3091888444876144,31,0.2728243697777537,31,0.2388064135906391,31,0.2073220257851038,31,0.1786338040689333,31,0.152676811282952
32,0.7999876350029769,32,0.7500115173101934,32,0.7010882686475697,32,0.6531879288762026,32,0.606168396920748,32,0.5602564408121022,32,0.5152726352946869,32,0.4715731777356834,32,0.4288468699261505,32,0.3874581804113552,32,0.3475901044773229,32,0.3093003459805816,32,0.2730744832027173,32,0.2390686806119374,32,0.207614913446168,32,0.1787898672208726,32,0.1527550508543513
33,0.799988949796318,33,0.750036170663531,33,0.7010030178546653,33,0.6530483044229806,33,0.6061736043872004,33,0.5602200563592701,33,0.5153893288057294,33,0.471621856355357,33,0.429065566310824,33,0.3876446440283445,33,0.347625860674103,33,0.3094910294985573,33,0.2733137651755742,33,0.239302879386701,33,0.2077946297233836,33,0.1789106585664657,33,0.152921807941832
34,0.799989301737961,34,0.7500288113112682,34,0.7010047612592495,34,0.6529676300200388,34,0.606099798139527,34,0.5602600460081356,34,0.5154092394152844,34,0.4716239598682864,34,0.4289977138324903,34,0.387656594372127,34,0.3476540553190416,34,0.3094373665717449,34,0.2730709740278454,34,0.2389937543946164,34,0.2075098340913253,34,0.1787137834657873,34,0.1525994359732837
35,0.7999885340057054,35,0.7499498423899996,35,0.7009581121763853,35,0.6529362672663281,35,0.606068015006888,35,0.5600647513239506,35,0.5151996281304431,35,0.4714341796756965,35,0.4288146728688953,35,0.3875694267873369,35,0.3477433454553581,35,0.3094465771088288,35,0.2732442810907483,35,0.2392565491720605,35,0.2076895418295049,35,0.1789077660938772,35,0.1529184677033608
36,0.7999892312464939,36,0.7499731189802794,36,0.7009178684925272,36,0.6529469377997099,36,0.606083477447819,36,0.5599980170949551,36,0.5153233160003796,36,0.4715699357946395,36,0.4288754446457786,36,0.3875620915008341,36,0.3477405318860348,36,0.3093998747840728,36,0.2730594890782232,36,0.2391538808155697,36,0.2076270747339827,36,0.1788423618471232,36,0.1528150416719193
37,0.7999891137717842,37,0.7501706104791489,37,0.7011906080269968,37,0.6533647471286189,37,0.6064951241710584,37,0.5605568930800513,37,0.5157465378135915,37,0.4720582255152302,37,0.4294833419261014,37,0.3881401406575301,37,0.3480490626830105,37,0.3097010947559632,37,0.2735367697142204,37,0.2394198608096704,37,0.207983308865828,37,0.1791908931427309,37,0.1531566997638934
38,0.7999884890711498,38,0.7499746162760038,38,0.7009334841288997,38,0.6529672198527509,38,0.6060236442519089,38,0.560025756863217,38,0.5152313473979899,38,0.4714519894356539,38,0.4287676745612301,38,0.3875866491164315,38,0.347749088832042,38,0.3096189361496045,38,0.2734206485661609,38,0.2393805346374022,38,0.2078985455559363,38,0.1789834260561017,38,0.1529033917930249
39,0.7999896295899095,39,0.7501016733707712,39,0.7010953818324053,39,0.65315464369639,39,0.6062601118325678,39,0.5601899100335684,39,0.5151964473172488,39,0.4714999424888107,39,0.4289445013909406,39,0.3876341792846605,39,0.3477216322993858,39,0.3096188478373191,39,0.2734603801925767,39,0.239362979941682,39,0.2078694491492161,39,0.1789650961959166,39,0.1528983418879098
40,0.7999889974955566,40,0.749977674806067,40,0.7008972818341414,40,0.6528145908025926,40,0.6060565971685091,40,0.5602939310300717,40,0.5154879097806331,40,0.471833947350922,40,0.4290722932792405,40,0.3876996074335206,40,0.3477349769040648,40,0.3095721088976262,40,0.2733176573914197,40,0.2392533704413808,40,0.2077365159017234,40,0.1788408684789471,40,0.1528461721043037
41,0.7999885352813937,41,0.7501506778003458,41,0.7012938163422312,41,0.6534720593217562,41,0.6064851311901072,41,0.5605803078845775,41,0.5158560432204879,41,0.471916960996245,41,0.4292969407015785,41,0.3879551675408258,41,0.3480956977628153,41,0.309731840904188,41,0.2734096059174154,41,0.2393929643599607,41,0.207907155033437,41,0.1789981539547569,41,0.1530360840523427
42,0.7999881984021808,42,0.7499611526474993,42,0.7009975368957979,42,0.6530787455877594,42,0.6061398343013895,42,0.5602243238476422,42,0.5154520697320476,42,0.4715923726165365,42,0.4289556491466212,42,0.387665756744199,42,0.3477297445550058,42,0.3095499085774666,42,0.2732652383433221,42,0.2393881121300689,42,0.2077523011506348,42,0.1788769539932167,42,0.1527826357135684
43,0.7999885354468608,43,0.7498944212487023,43,0.700998347288302,43,0.6531167265165637,43,0.6062416546517986,43,0.5601684226058391,43,0.5152162627999768,43,0.4714405450228529,43,0.4290197536154333,43,0.3877383980212092,43,0.3478267612601081,43,0.3095840267808422,43,0.2733952421256542,43,0.2394017402808984,43,0.2079066806327627,43,0.1790839293905927,43,0.1529804013108305
44,0.7999890269465197,44,0.7499420532335732,44,0.7010000127841634,44,0.6531151661994739,44,0.6061401652024029,44,0.5602638446597633,44,0.5154118950354829,44,0.4717566119837597,44,0.4291714711448807,44,0.3879078480748386,44,0.347885626131993,44,0.3097208626415947,44,0.2735139608092869,44,0.2394597136327077,44,0.2080106716986133,44,0.1792635063598616,44,0.153084937769574
45,0.7999890202026382,45,0.7500160713453939,45,0.7009952796379438,45,0.652972637678835,45,0.6061432469067678,45,0.5603395260447284,45,0.5154993157457546,45,0.4718232761411283,45,0.4292769189554162,45,0.3878546018843301,45,0.3479385367867018,45,0.3097287670568417,45,0.2733681586922397,45,0.2392333666728704,45,0.2077713525624517,45,0.1789020406122423,45,0.1530797232031898
46,0.7999879667060983,46,0.7500457939107279,46,0.701060678808863,46,0.653130311446904,46,0.6061405172580261,46,0.5602331107904668,46,0.5153919515039018,46,0.4717701466802691,46,0.4291745299784255,46,0.3877481104601758,46,0.3478297755122567,46,0.309644816227047,46,0.2734155341025152,46,0.2394553770796101,46,0.2079772585095777,46,0.1791793489804586,46,0.1531004213935505
47,0.799987919450457,47,0.7499081303677856,47,0.7009647475307847,47,0.6530814018695243,47,0.6062756239640089,47,0.5603781576092879,47,0.5155595442641059,47,0.4718500110054267,47,0.4292160394333984,47,0.3879434792641499,47,0.3480660140041302,47,0.309843021028555,47,0.273586863586584,47,0.2396299802896407,47,0.208149322258652,47,0.1793239192459138,47,0.1533371758826875
48,0.7999883663990321,48,0.7501378214957887,48,0.7011890844857942,48,0.6532979847802627,48,0.6063680456356998,48,0.5606688852054272,48,0.5158035028567466,48,0.4721029549901677,48,0.42947447476256,48,0.3882684007499463,48,0.3485288812127361,48,0.3104045573216619,48,0.2741643817250854,48,0.2400734317042009,48,0.2085206875331991,48,0.1795691823498451,48,0.1534728201074233
49,0.7999886863123318,49,0.7499830884082457,49,0.7011754972536153,49,0.6532716084093946,49,0.6063366124938467,49,0.5606089866175168,49,0.5158454961946267,49,0.4720685639982625,49,0.4296174100653747,49,0.3883767617686932,49,0.3483337399664229,49,0.310038475646667,49,0.2737762267762873,49,0.239602741360641,49,0.208214145569467,49,0.1792430649421404,49,0.1531301717891075
50,0.7999885019499676,50,0.7498580455880864,50,0.7009748127155755,50,0.6530197141010846,50,0.6061946202803541,50,0.560399298611107,50,0.5154921136201768,50,0.4717198231838939,50,0.4290057689111132,50,0.3876492212271077,50,0.3479068120030841,50,0.3097707367902431,50,0.2735777825911955,50,0.239510669942314,50,0.2079849172119042,50,0.1791254747723383,50,0.1532098325176505
