;Version, 1, 0
;Vend0,;Vend1,;Vend2,;Vend3,;Vend4
;X, Y,;X, Y,;X, Y,;X, Y,;X, Y
;Re, Re,;Re, Re,;Re, Re,;Re, Re,;Re, Re
;Iteration, Y,;Iteration, Y,;Iteration, Y,;Iteration, Y,;Iteration, Y
;xunit, V,;xunit, V,;xunit, V,;xunit, V,;xunit, V
1,0.7999538254814776,1,0.6066794793738421,1,0.4297525998404345,1,0.2738228663116232,1,0.1531429093358265
2,0.7999550250758727,2,0.6064101600641266,2,0.4295245756874331,2,0.2737132572771804,2,0.1530487485527453
3,0.7999566002100521,3,0.6064236114115359,3,0.4298601091784851,3,0.273702211200265,3,0.1530184513563118
4,0.7999545603204613,4,0.6066882729299958,4,0.4302519935675139,4,0.2744996752856418,4,0.153571931941366
5,0.7999577288385148,5,0.6060535652587636,5,0.4292434324698233,5,0.2734450323517916,5,0.1527351548073766
6,0.7999527162208047,6,0.6065765189093887,6,0.4294504884794503,6,0.2736573565774673,6,0.1527645679224434
7,0.7999583008784411,7,0.6065518820938368,7,0.4295937199132997,7,0.2738164287691008,7,0.1532255186454314
8,0.7999540281029554,8,0.6065148995622784,8,0.4293225245025771,8,0.2738128750028008,8,0.1533192633296587
9,0.7999565125908008,9,0.6063022105864655,9,0.4296997632679529,9,0.2741507826144252,9,0.1534802947454849
10,0.7999546785378983,10,0.6061369717297763,10,0.4295246610209269,10,0.2736193947333427,10,0.1530974987136773
11,0.799953062476383,11,0.606440569302326,11,0.4295307269955481,11,0.2736149748206942,11,0.1532192342596584
12,0.7999554690374724,12,0.6063411038249014,12,0.4296318737000993,12,0.2738514027367506,12,0.1532083484275589
13,0.7999538725591143,13,0.606453941081125,13,0.4295151311182342,13,0.2741446664666228,13,0.153336516776145
14,0.7999550632008573,14,0.6062634243860304,14,0.4294084883338095,14,0.2737969961864355,14,0.1530764381196539
15,0.7999547941595544,15,0.6061985773564372,15,0.429638163933723,15,0.273589143774414,15,0.1529767417625018
16,0.799953591603354,16,0.6066202864856013,16,0.4297816810882759,16,0.2739168368352619,16,0.1533690512798787
17,0.7999555436413367,17,0.606398304587134,17,0.4296176193141957,17,0.2736351027990603,17,0.1532813261537323
18,0.7999558369243203,18,0.6065441961373217,18,0.4295227547495301,18,0.2736313911843715,18,0.1527336210555056
19,0.7999566591451691,19,0.6064978388302947,19,0.4297326634694144,19,0.2739816272386559,19,0.1532140872163923
20,0.7999546753972286,20,0.606418495818569,20,0.4297049394935729,20,0.2738981000841092,20,0.1535082367510067
21,0.7999581180208418,21,0.6065599292927573,21,0.4296464706785043,21,0.2738534784546467,21,0.1531007427605005
22,0.7999564600168696,22,0.606428691222915,22,0.4291139062002948,22,0.2733660777827924,22,0.1529171228473157
23,0.7999558605772413,23,0.6063900255127097,23,0.4294166944048473,23,0.2738139748478826,23,0.1532817822198018
24,0.7999558233803252,24,0.6063669028102912,24,0.429455450187082,24,0.2734549905482965,24,0.1529601300464487
25,0.7999541573509766,25,0.6062653701738873,25,0.4295721911874915,25,0.2737391663847761,25,0.1530876280809538
26,0.7999570239417165,26,0.6065299090543301,26,0.4296688746547384,26,0.2738660171163501,26,0.1531499363474057
27,0.7999577965893335,27,0.6063366256968302,27,0.4295391686960483,27,0.2739246200269502,27,0.1530905592814013
28,0.7999553116942463,28,0.6061620961945474,28,0.4292185520850499,28,0.2734266852487633,28,0.1526069585098507
29,0.7999561058176877,29,0.6066002680266709,29,0.4299297264216508,29,0.2740666341665847,29,0.1534594713490499
30,0.7999561055825455,30,0.6065474511076271,30,0.4297147301372545,30,0.2740590996473356,30,0.1533933582257987
31,0.7999576011138115,31,0.6064394535989936,31,0.4294605186525653,31,0.2738928209138991,31,0.1532138404556772
32,0.7999564048847038,32,0.606112644537259,32,0.4292788109929869,32,0.2734970729862683,32,0.153108794692856
33,0.7999581807432727,33,0.6068616620593459,33,0.429985575595148,33,0.2742202243680854,33,0.1533378520641844
34,0.7999548342259309,34,0.6061997702873706,34,0.429634407316695,34,0.273977398844685,34,0.1535524251483429
35,0.7999557758137336,35,0.6064645556464188,35,0.4295213649613893,35,0.2736454978472113,35,0.1531363431859333
36,0.7999552106919555,36,0.6062208391356411,36,0.4295838448879334,36,0.2738042383961082,36,0.1531465451359058
37,0.7999557978174169,37,0.6066548398810033,37,0.4296660227548141,37,0.2738717543497599,37,0.1533889822123248
38,0.799958732701383,38,0.6066990437903207,38,0.4297903706996309,38,0.274002645968513,38,0.1532421135156853
39,0.799958134613228,39,0.6062776087242679,39,0.429340185085346,39,0.2733833140746634,39,0.1529647299478531
40,0.7999566079414289,40,0.6065436936634843,40,0.4296242107508931,40,0.2737282047032923,40,0.1530066207231013
41,0.7999556542676407,41,0.6062780023382303,41,0.4290748489888566,41,0.2735751710287709,41,0.1529948405675664
42,0.799954557728515,42,0.6064895186581407,42,0.4294368890170516,42,0.2736586419753737,42,0.1529573070648533
43,0.7999558536891699,43,0.6066561277049989,43,0.4296974692343802,43,0.2740203642570277,43,0.1535026225798113
44,0.799956223740156,44,0.6064497745604654,44,0.4293995420936312,44,0.2737821682298734,44,0.1530543406942478
45,0.7999560786874387,45,0.6063476316665606,45,0.4297180852149909,45,0.2740111406398195,45,0.1537067169331806
46,0.7999551946372162,46,0.6066332488023191,46,0.4297921228612189,46,0.2738618265682849,46,0.153125341691116
47,0.7999553478145599,47,0.6065268289792908,47,0.4296345715414956,47,0.273875977320636,47,0.1530896225433665
48,0.7999568506857555,48,0.6064168820335863,48,0.4292516643355535,48,0.2734993193590605,48,0.1529535980726332
49,0.7999542368351589,49,0.6067078416342808,49,0.4296704317095251,49,0.2739139455635439,49,0.153221428903052
50,0.7999544642142813,50,0.6064588647246428,50,0.4295385105048226,50,0.2737402837989201,50,0.15312561281624
